EXPLAIN
TAG	EISPOT
TITLE	LABEL	Potentiostatic EIS	Test Identifier
DATE	LABEL	2024/12/16	Date
TIME	LABEL	16:01:58	Time
NOTES	NOTES	1	Notes...
	
PSTAT	PSTAT	REF620-49045	Potentiostat
VDC	POTEN	0.00000E+000	T	DC Voltage (V)
FREQINIT	QUANT	1.00000E+005	Initial Freq. (Hz)
FREQFINAL	QUANT	1.00000E-002	Final Freq. (Hz)
PTSPERDEC	QUANT	1.00000E+001	Points/decade
VAC	QUANT	1.00000E+001	AC Voltage (mV rms)
AREA	QUANT	1.00000E+000	Sample Area (cm^2)
SPEED	SELECTOR	1	Optimize for:
DRIFTCOR	SELECTOR	0	Drift Correction
THD	SELECTOR	0	THD
ZGUESS	QUANT	1.00000E+002	Estimated Z (ohms)
EOC	QUANT	-0.1670041	Open Circuit (V)
SEQUENCER	TOGGLE	TRUE	Run as Sequence
PSTATMODEL	IQUANT	87	Pstat Model
PSTATSECTION	LABEL	REF620-49045	Pstat Section
PSTATSERIALNO	LABEL	49045	Pstat Serial Number
CTRLMODE	IQUANT	1	Control Mode
ELECTROMETER	IQUANT	0	RE=0 or CS=1
IESTAB	IQUANT	0	I/E Stability
CASPEED	IQUANT	3	Control Amp Speed
CONVENTION	IQUANT	1	Current Convention
ICHRANGE	IQUANT	2	Ich Range
ICHRANGEMODE	TOGGLE	F	Ich Auto Range
ICHOFFSETENABLE	TOGGLE	T	Ich Offset Enable
ICHOFFSET	QUANT	0	Ich Offset (V)
ICHFILTER	IQUANT	3	Ich Filter
VCHRANGE	IQUANT	2	Vch Range
VCHRANGEMODE	TOGGLE	F	Vch Auto Range
VCHOFFSETENABLE	TOGGLE	T	Vch Offset Enable
VCHOFFSET	QUANT	0	Vch Offset (V)
VCHFILTER	IQUANT	3	Vch Filter
ACHRANGE	IQUANT	2	Ach Range
ACHOFFSETENABLE	TOGGLE	F	Ach Offset Enable
ACHOFFSET	QUANT	0	Ach Offset (V)
ACHFILTER	IQUANT	1	Ach Filter
IERANGELOWERLIMIT	IQUANT	1	I/E Range Lower Limit
IERANGEMODE	TOGGLE	F	I/E AutoRange
IERANGE	IQUANT	10	I/E Range
POSFEEDENABLE	TOGGLE	F	Positive Feedback IR Comp
POSFEEDRESISTANCE	QUANT	0	Positive Feedback Resistance (ohm)
ACHSELECT	IQUANT	4	Ach Select
SENSECABLEID	IQUANT	7	Sense Cable ID
PWRCABLEID	IQUANT	7	Power Cable ID
DCCALDATE	LABEL	4/1/2024	DC Calibration Date
ACCALDATE	LABEL	10/11/2023	AC Calibration Date
THERMOSELECT	IQUANT	1	Thermo Select
FRAMEWORKVERSION	LABEL	7.10.3	Framework Version
INSTRUMENTVERSION	LABEL	4.91	Instrument Version
COMMVERSION	LABEL	5.10	Communications Version
CPUPLDVERSION	LABEL	6.00	CPU PLD Version
CTRLPLDVERSION	LABEL	7.10	CTRL PLD Version
PSTATPLDVERSION	LABEL	8.13	PSTAT PLD Version
ZCURVE	TABLE
	Pt	Time	Freq	Zreal	Zimag	Zsig	Zmod	Zphz	Idc	Vdc	IERange	Imod	Vmod	Temp
	#	s	Hz	ohm	ohm	V	ohm	°	A	V	#	A	V	°C
	0	3	100078.1	10.56568	-0.1604028	1	10.5669	-0.8697683	-4.538136E-006	-0.1664667	9	0.0009502	0.010009	-327.67
	1	5	79453.13	10.57333	-0.1686041	1	10.57467	-0.9135711	-4.208077E-006	-0.1664691	9	0.0011302	0.0119263	-327.67
	2	6	63140.62	10.58444	-0.1841177	1	10.58604	-0.996568	-3.969652E-006	-0.1664564	9	0.0010859	0.0114792	-327.67
	3	8	50203.12	10.59369	-0.2026081	1	10.59562	-1.095669	-4.200798E-006	-0.1664684	9	0.0010524	0.0111414	-327.67
	4	9	39890.62	10.60446	-0.2310824	1	10.60698	-1.248339	-4.240451E-006	-0.1664659	9	0.0010208	0.0108211	-327.67
	5	11	31640.63	10.62421	-0.2668011	1	10.62755	-1.438542	-4.177864E-006	-0.1664688	9	0.0009937	0.0105565	-327.67
	6	12	25171.88	10.64393	-0.307239	1	10.64837	-1.653394	-4.156041E-006	-0.166465	9	0.0009759	0.0103891	-327.67
	7	14	20015.62	10.66807	-0.355785	1	10.674	-1.910133	-4.037815E-006	-0.1664661	9	0.0009604	0.0102501	-327.67
	8	15	15890.62	10.69743	-0.4210723	1	10.70572	-2.254113	-4.004138E-006	-0.1664683	9	0.0009499	0.0101685	-327.67
	9	17	12609.38	10.72874	-0.4926583	1	10.74005	-2.629146	-4.066307E-006	-0.1664674	9	0.0009409	0.0101048	-327.67
	10	18	10078.13	10.7594	-0.5755661	1	10.77478	-3.062076	-4.265501E-006	-0.1664546	9	0.0009333	0.0100562	-327.67
	11	20	8015.625	10.80485	-0.684541	1	10.82651	-3.625128	-4.093825E-006	-0.166472	9	0.0009276	0.0100428	-327.67
	12	21	6328.125	10.85417	-0.813314	1	10.8846	-4.285223	-4.286655E-006	-0.1664752	9	0.0009206	0.0100205	-327.67
	13	22	5015.625	10.91766	-0.966299	1	10.96034	-5.057949	-4.310263E-006	-0.1664627	9	0.0009139	0.0100169	-327.67
	14	24	3984.375	10.9815	-1.149094	1	11.04145	-5.973638	-4.254285E-006	-0.1664587	9	0.0009069	0.0100133	-327.67
	15	25	3170.956	11.05523	-1.364635	1	11.13914	-7.03688	-4.236677E-006	-0.1664611	9	0.0008979	0.0100016	-327.67
	16	27	2527.573	11.14197	-1.6205	1	11.2592	-8.275133	-4.145618E-006	-0.1664546	9	0.0008882	0.0100007	-327.67
	17	28	1976.103	11.25905	-1.966499	1	11.42949	-9.90731	-4.244077E-006	-0.1664621	9	0.0008755	0.010006	-327.67
	18	30	1577.524	11.37048	-2.352729	1	11.61133	-11.69041	-4.077035E-006	-0.1664692	9	0.0008607	0.0099942	-327.67
	19	31	1265.625	11.50433	-2.793685	1	11.83868	-13.64937	-4.149752E-006	-0.166473	9	0.000845	0.0100032	-327.67
	20	33	998.264	11.66804	-3.377614	1	12.14708	-16.14444	-3.962238E-006	-0.16647	9	0.000823	0.0099972	-327.67
	21	34	796.875	11.85266	-4.053611	1	12.52666	-18.88069	-4.112046E-006	-0.1664564	9	0.0007983	0.0100005	-327.67
	22	36	627.7902	12.08	-4.927282	1	13.04624	-22.18994	-4.33663E-006	-0.1664679	9	0.0007666	0.0100017	-327.67
	23	37	505.5147	12.32655	-5.888154	1	13.66068	-25.53291	1.156477E-007	-0.1664376	9	0.0007104	0.0097232	-327.67
	24	39	397.9953	12.64353	-7.185868	1	14.54289	-29.61145	1.522221E-007	-0.1664314	9	0.0006988	0.0101744	-327.67
	25	40	315.5048	13.01196	-8.730697	1	15.66959	-33.86062	1.244375E-007	-0.1664352	9	0.000642	0.0100669	-327.67
	26	42	252.4038	13.43454	-10.54098	1	17.07627	-38.11837	1.601165E-007	-0.1664409	9	0.0005869	0.0100255	-327.67
	27	43	198.6229	13.98223	-12.9154	1	19.03445	-42.7287	1.411722E-007	-0.166444	9	0.0005257	0.0100091	-327.67
	28	45	158.3615	14.61286	-15.66572	1	21.42313	-46.9915	1.219364E-007	-0.166436	9	0.0004669	0.0100048	-327.67
	29	46	125.558	15.39534	-19.10336	1	24.53477	-51.13477	1.34115E-007	-0.1664355	9	0.0004076	0.0100015	-327.67
	30	48	100.4464	16.31397	-23.12755	1	28.30246	-54.80119	6.808086E-007	-0.1664382	9	0.0003533	0.0100002	-327.67
	31	49	79.00281	17.53876	-28.42057	1	33.39666	-58.32065	5.824734E-008	-0.1664356	8	0.0002975	0.009935	-327.67
	32	51	63.3446	18.90546	-34.34134	1	39.20132	-61.16651	3.954699E-008	-0.1664374	8	0.000255	0.0099965	-327.67
	33	52	50.22321	20.66906	-41.95509	1	46.77007	-63.77296	1.05246E-007	-0.1664298	8	0.0002134	0.0099819	-327.67
	34	54	38.42213	23.27721	-52.78201	1	57.68682	-66.20221	1.521437E-008	-0.1664281	8	0.000172	0.0099203	-327.67
	35	55	31.25	25.79381	-63.02218	1	68.09637	-67.74162	1.450456E-008	-0.1664268	8	0.0001447	0.0098535	-327.67
	36	57	24.93351	29.15503	-76.48124	1	81.84984	-69.1329	1.790613E-008	-0.166428	8	0.0001177	0.0096343	-327.67
	37	58	19.86229	33.20976	-92.75359	1	98.5196	-70.30045	-3.156954E-007	-0.16644	8	0.0001102	0.0108554	-327.67
	38	60	15.625	38.84773	-113.8932	1	120.3362	-71.16605	-2.95141E-007	-0.1664456	8	8.326898E-005	0.0100203	-327.67
	39	61	12.40079	45.57274	-138.4692	1	145.7759	-71.78268	-2.643639E-007	-0.1664443	8	6.858592E-005	0.0099982	-327.67
	40	63	9.93114	53.6541	-166.8905	1	175.3032	-72.17777	-1.494871E-007	-0.1664409	8	5.703666E-005	0.0099987	-327.67
	41	64	7.944915	63.78021	-201.2499	1	211.1148	-72.41553	-1.428983E-007	-0.1664372	8	4.739205E-005	0.0100052	-327.67
	42	66	6.317385	76.72549	-243.6531	1	255.448	-72.52097	-9.372147E-008	-0.1664447	8	3.913941E-005	0.0099981	-327.67
	43	68	5.008013	93.13746	-295.3109	1	309.65	-72.49536	-3.654625E-008	-0.1664401	8	3.22812E-005	0.0099959	-327.67
	44	70	3.945707	115.6277	-361.0641	1	379.1267	-72.24278	3.834859E-007	-0.1664539	7	2.62919E-005	0.009968	-327.67
	45	73	3.158693	141.5748	-425.8908	1	448.8055	-71.61214	3.01985E-006	-0.1664643	7	2.226162E-005	0.0099911	-327.67
	46	76	2.504006	170.9566	-514.9729	1	542.6078	-71.63528	2.676743E-006	-0.1664677	7	1.790464E-005	0.0097564	-327.67
	47	79	1.998082	211.8944	-622.9066	1	657.9603	-71.21321	6.55308E-009	-0.1664581	7	1.539649E-005	0.0101559	-327.67
	48	83	1.584686	262.5074	-748.0223	1	792.7468	-70.66223	-1.770191E-008	-0.1664559	7	1.26878E-005	0.0100733	-327.67
	49	88	1.266892	323.2721	-890.0472	1	946.9365	-70.03858	-1.892937E-008	-0.1664524	7	1.057559E-005	0.0100236	-327.67
	50	94	0.999041	402.9733	-1067.815	1	1141.322	-69.32442	-1.699476E-008	-0.1664516	7	8.767685E-006	0.0100123	-327.67
	51	99	0.7923428	497.6937	-1272.188	1	1366.075	-68.63402	2.021856E-009	-0.1664531	7	7.320582E-006	0.0100039	-327.67
	52	106	0.6334459	613.2983	-1500.613	1	1621.103	-67.77024	-1.812481E-008	-0.1664543	7	6.170385E-006	0.010005	-327.67
	53	114	0.5040323	752.7433	-1775.009	1	1928.025	-67.01924	-2.2805E-008	-0.1664525	7	5.186945E-006	0.0100019	-327.67
	54	123	0.400641	924.8284	-2100.284	1	2294.886	-66.23444	-1.592291E-008	-0.1664543	7	4.357486E-006	0.0100008	-327.67
	55	135	0.316723	1149.219	-2485.782	1	2738.58	-65.1881	-1.992286E-008	-0.1664555	7	3.651561E-006	0.0100006	-327.67
	56	149	0.2520161	1413.427	-2927.434	1	3250.791	-64.22777	-5.580388E-008	-0.1664493	6	3.056984E-006	0.009938	-327.67
	57	166	0.2003205	1779.047	-3490.417	1	3917.654	-62.99231	-1.486958E-008	-0.1664531	6	2.554071E-006	0.0100062	-327.67
	58	188	0.1588983	2204.397	-4036.706	1	4599.387	-61.36157	-6.660207E-008	-0.1664504	6	2.175889E-006	0.0100079	-327.67
	59	213	0.1260081	2787.697	-4691.092	1	5456.885	-59.27896	-7.312133E-008	-0.1664499	6	1.833411E-006	0.0100048	-327.67
	60	244	0.1001603	3528.131	-5347.67	1	6406.659	-56.58512	-1.079362E-007	-0.166447	6	1.561529E-006	0.0100042	-327.67
	61	280	0.0794492	4466.021	-6019.812	1	7495.564	-53.42876	-1.243057E-007	-0.1664488	6	1.334531E-006	0.0100031	-327.67
	62	319	0.0631739	5554.979	-6643.957	1	8660.252	-50.10117	-1.485931E-007	-0.1664458	6	1.155095E-006	0.0100034	-327.67
	63	368	0.0501337	6909.095	-6825.984	1	9712.34	-44.65331	-3.132993E-007	-0.1664364	6	1.029552E-006	0.0099994	-327.67
	64	430	0.0398258	8268.697	-6963.594	1	10810.32	-40.10286	-3.341609E-007	-0.1664315	6	9.251457E-007	0.0100011	-327.67
	65	507	0.0316296	9620.49	-6983.255	1	11887.79	-35.9749	-3.572714E-007	-0.166425	6	8.413055E-007	0.0100013	-327.67
	66	635	0.0251206	10073.5	-4650.476	1	11095.15	-24.78061	-7.892536E-007	-0.1664076	6	9.008485E-007	0.0099951	-327.67
	67	756	0.0199553	10823.47	-4387.563	1	11678.96	-22.0664	-7.518038E-007	-0.1664128	6	8.561983E-007	0.0099995	-327.67
	68	908	0.0158522	11034.53	-3889.366	1	11699.91	-19.41615	-6.900831E-007	-0.1664181	6	8.54727E-007	0.0100002	-327.67
	69	1161	0.0125907	11897.4	-3057.513	1	12284	-14.41256	-7.042937E-007	-0.1664156	6	8.140001E-007	0.0099992	-327.67
	70	1481	0.0100011	11291.77	-3018.312	1	11688.21	-14.9654	-8.672711E-007	-0.1664073	6	8.555007E-007	0.0099993	-327.67
