EXPLAIN
TAG	EISPOT
TITLE	LABEL	Potentiostatic EIS	Test Identifier
DATE	LABEL	2024/12/16	Date
TIME	LABEL	20:11:16	Time
NOTES	NOTES	1	Notes...
	
PSTAT	PSTAT	REF620-49045	Potentiostat
VDC	POTEN	0.00000E+000	T	DC Voltage (V)
FREQINIT	QUANT	1.00000E+005	Initial Freq. (Hz)
FREQFINAL	QUANT	1.00000E-002	Final Freq. (Hz)
PTSPERDEC	QUANT	1.00000E+001	Points/decade
VAC	QUANT	1.00000E+001	AC Voltage (mV rms)
AREA	QUANT	1.00000E+000	Sample Area (cm^2)
SPEED	SELECTOR	1	Optimize for:
DRIFTCOR	SELECTOR	0	Drift Correction
THD	SELECTOR	0	THD
ZGUESS	QUANT	1.00000E+002	Estimated Z (ohms)
EOC	QUANT	-0.2492177	Open Circuit (V)
SEQUENCER	TOGGLE	TRUE	Run as Sequence
PSTATMODEL	IQUANT	87	Pstat Model
PSTATSECTION	LABEL	REF620-49045	Pstat Section
PSTATSERIALNO	LABEL	49045	Pstat Serial Number
CTRLMODE	IQUANT	1	Control Mode
ELECTROMETER	IQUANT	0	RE=0 or CS=1
IESTAB	IQUANT	0	I/E Stability
CASPEED	IQUANT	3	Control Amp Speed
CONVENTION	IQUANT	1	Current Convention
ICHRANGE	IQUANT	2	Ich Range
ICHRANGEMODE	TOGGLE	F	Ich Auto Range
ICHOFFSETENABLE	TOGGLE	T	Ich Offset Enable
ICHOFFSET	QUANT	0	Ich Offset (V)
ICHFILTER	IQUANT	3	Ich Filter
VCHRANGE	IQUANT	2	Vch Range
VCHRANGEMODE	TOGGLE	F	Vch Auto Range
VCHOFFSETENABLE	TOGGLE	T	Vch Offset Enable
VCHOFFSET	QUANT	0	Vch Offset (V)
VCHFILTER	IQUANT	3	Vch Filter
ACHRANGE	IQUANT	2	Ach Range
ACHOFFSETENABLE	TOGGLE	F	Ach Offset Enable
ACHOFFSET	QUANT	0	Ach Offset (V)
ACHFILTER	IQUANT	1	Ach Filter
IERANGELOWERLIMIT	IQUANT	1	I/E Range Lower Limit
IERANGEMODE	TOGGLE	F	I/E AutoRange
IERANGE	IQUANT	10	I/E Range
POSFEEDENABLE	TOGGLE	F	Positive Feedback IR Comp
POSFEEDRESISTANCE	QUANT	0	Positive Feedback Resistance (ohm)
ACHSELECT	IQUANT	4	Ach Select
SENSECABLEID	IQUANT	7	Sense Cable ID
PWRCABLEID	IQUANT	7	Power Cable ID
DCCALDATE	LABEL	4/1/2024	DC Calibration Date
ACCALDATE	LABEL	10/11/2023	AC Calibration Date
THERMOSELECT	IQUANT	1	Thermo Select
FRAMEWORKVERSION	LABEL	7.10.3	Framework Version
INSTRUMENTVERSION	LABEL	4.91	Instrument Version
COMMVERSION	LABEL	5.10	Communications Version
CPUPLDVERSION	LABEL	6.00	CPU PLD Version
CTRLPLDVERSION	LABEL	7.10	CTRL PLD Version
PSTATPLDVERSION	LABEL	8.13	PSTAT PLD Version
ZCURVE	TABLE
	Pt	Time	Freq	Zreal	Zimag	Zsig	Zmod	Zphz	Idc	Vdc	IERange	Imod	Vmod	Temp
	#	s	Hz	ohm	ohm	V	ohm	°	A	V	#	A	V	°C
	0	4	100078.1	11.35918	-0.1778457	1	11.36057	-0.8969813	-5.800181E-006	-0.2486797	9	0.0008844	0.0100156	-327.67
	1	5	79453.13	11.36813	-0.1980256	1	11.36985	-0.997955	-5.691985E-006	-0.2486706	9	0.001044	0.0118449	-327.67
	2	7	63140.62	11.37438	-0.2248462	1	11.3766	-1.132463	-5.610905E-006	-0.2486703	9	0.0010025	0.0113889	-327.67
	3	8	50203.12	11.3865	-0.2536454	1	11.38932	-1.276109	-5.610818E-006	-0.2486712	9	0.0009715	0.0110546	-327.67
	4	10	39890.62	11.39983	-0.3053634	1	11.40392	-1.534395	-5.758586E-006	-0.2486821	9	0.000943	0.0107484	-327.67
	5	11	31640.63	11.41877	-0.3555981	1	11.4243	-1.783703	-5.5435E-006	-0.2486702	9	0.0009189	0.0104939	-327.67
	6	13	25171.88	11.44577	-0.4198245	1	11.45347	-2.100635	-5.724218E-006	-0.2486862	9	0.0009036	0.0103466	-327.67
	7	14	20015.62	11.4779	-0.4989913	1	11.48874	-2.489314	-5.895365E-006	-0.2486773	9	0.0008902	0.0102256	-327.67
	8	16	15890.62	11.5137	-0.592251	1	11.52892	-2.944632	-5.847295E-006	-0.2486746	9	0.0008798	0.0101425	-327.67
	9	17	12609.38	11.56108	-0.6988442	1	11.58219	-3.459205	-5.745926E-006	-0.2486714	9	0.0008708	0.0100853	-327.67
	10	19	10078.13	11.60866	-0.8314188	1	11.6384	-4.09656	-5.821452E-006	-0.2486731	9	0.000864	0.0100552	-327.67
	11	20	8015.625	11.66998	-0.985202	1	11.71149	-4.825578	-5.795902E-006	-0.2486791	9	0.0008568	0.0100345	-327.67
	12	22	6328.125	11.7451	-1.174946	1	11.80373	-5.712698	-5.629176E-006	-0.2486782	9	0.000849	0.0100212	-327.67
	13	23	5015.625	11.82943	-1.409189	1	11.91307	-6.793386	-5.682474E-006	-0.2486657	9	0.0008403	0.0100105	-327.67
	14	25	3984.375	11.92268	-1.672861	1	12.03947	-7.986979	-5.771543E-006	-0.2486776	9	0.0008314	0.010009	-327.67
	15	26	3170.956	12.02684	-1.991351	1	12.19058	-9.40149	-5.50523E-006	-0.2486762	9	0.0008202	0.0099988	-327.67
	16	28	2527.573	12.14911	-2.363119	1	12.3768	-11.00714	-5.73612E-006	-0.2486654	9	0.0008083	0.010004	-327.67
	17	29	1976.103	12.29833	-2.868988	1	12.62854	-13.13127	-5.797161E-006	-0.2486749	9	0.0007919	0.0100001	-327.67
	18	30	1577.524	12.44839	-3.426517	1	12.91137	-15.38998	-5.759322E-006	-0.2486718	9	0.0007744	0.0099983	-327.67
	19	32	1265.625	12.60378	-4.088121	1	13.2502	-17.97083	-5.443371E-006	-0.2486698	9	0.0007543	0.0099943	-327.67
	20	33	998.264	12.80415	-4.954262	1	13.7292	-21.15277	-5.636757E-006	-0.2486796	9	0.0007281	0.0099965	-327.67
	21	35	796.875	13.00387	-5.980073	1	14.313	-24.69622	-5.672046E-006	-0.2486769	9	0.0006988	0.0100026	-327.67
	22	36	627.7902	13.24053	-7.31354	1	15.12612	-28.9145	-5.445439E-006	-0.24868	9	0.0006609	0.009997	-327.67
	23	38	505.5147	13.48625	-8.822804	1	16.11586	-33.193	1.742319E-007	-0.2486294	9	0.0006022	0.0097226	-327.67
	24	39	397.9953	13.79322	-10.88099	1	17.5684	-38.26868	7.709605E-008	-0.2486264	9	0.0005784	0.0101736	-327.67
	25	41	315.5048	14.14502	-13.38048	1	19.47098	-43.40897	7.665358E-008	-0.2486193	9	0.0005168	0.0100701	-327.67
	26	42	252.4038	14.55216	-16.3544	1	21.89136	-48.33728	6.951338E-008	-0.2486326	9	0.0004577	0.0100234	-327.67
	27	44	198.6229	15.09129	-20.32635	1	25.31615	-53.40799	6.597588E-008	-0.2486219	9	0.0003953	0.01001	-327.67
	28	45	158.3615	15.73143	-24.99452	1	29.5331	-57.81388	6.023646E-007	-0.2486264	9	0.0003387	0.0100052	-327.67
	29	47	125.558	16.57293	-30.90775	1	35.07066	-61.79951	3.616651E-008	-0.2486246	8	0.0002839	0.0099582	-327.67
	30	48	100.4464	17.58432	-37.89842	1	41.77916	-65.10938	1.378115E-008	-0.2486178	8	0.0002395	0.0100054	-327.67
	31	50	79.00281	18.99884	-47.21096	1	50.89038	-68.07895	-3.376954E-009	-0.2486232	8	0.0001965	0.0100022	-327.67
	32	51	63.3446	20.67359	-57.76103	1	61.34928	-70.3069	1.609772E-008	-0.2486318	8	0.0001628	0.0099888	-327.67
	33	53	50.22321	22.93365	-71.31145	1	74.90845	-72.17229	4.350051E-008	-0.2486174	8	0.0001331	0.0099738	-327.67
	34	54	38.42213	26.33187	-90.89302	1	94.63038	-73.84361	-1.197037E-008	-0.2486229	8	0.0001048	0.009919	-327.67
	35	56	31.25	29.69012	-109.4702	1	113.425	-74.82548	-2.104048E-008	-0.2486131	8	8.677093E-005	0.009842	-327.67
	36	57	24.93351	34.28906	-133.9401	1	138.2595	-75.6405	9.252403E-010	-0.2486161	8	6.972668E-005	0.0096404	-327.67
	37	59	19.86229	39.78104	-163.5586	1	168.3269	-76.32984	-1.384159E-007	-0.2486245	8	6.452177E-005	0.0108608	-327.67
	38	60	15.625	47.18414	-202.3216	1	207.7507	-76.87249	-1.111313E-007	-0.2486417	8	4.811011E-005	0.0099949	-327.67
	39	62	12.40079	55.85298	-247.6584	1	253.8784	-77.29103	-8.255108E-008	-0.2486457	8	3.938528E-005	0.0099991	-327.67
	40	63	9.93114	65.97444	-301.0625	1	308.2065	-77.63966	8.433659E-009	-0.2486297	8	3.24527E-005	0.0100021	-327.67
	41	65	7.944915	78.23364	-366.8449	1	375.0942	-77.9614	-3.474187E-008	-0.248643	7	2.659784E-005	0.0099767	-327.67
	42	66	6.317385	93.26036	-449.0094	1	458.5924	-78.26636	-2.448225E-008	-0.2486391	7	2.180668E-005	0.0100004	-327.67
	43	69	5.008013	111.4749	-550.9376	1	562.1022	-78.56139	-1.943906E-008	-0.2486379	7	1.7789E-005	0.0099992	-327.67
	44	71	3.945707	134.1218	-680.0309	1	693.1311	-78.84281	-1.671449E-008	-0.2486371	7	1.443317E-005	0.0100041	-327.67
	45	73	3.158693	159.779	-828.3572	1	843.6262	-79.08249	-1.647423E-008	-0.2486454	7	1.185872E-005	0.0100043	-327.67
	46	76	2.504006	192.4818	-1018.891	1	1036.913	-79.30215	-1.272562E-008	-0.2486409	7	9.356841E-006	0.0097434	-327.67
	47	80	1.998082	231.0345	-1246.114	1	1267.35	-79.4964	-1.225089E-008	-0.2486372	7	7.996754E-006	0.0101603	-327.67
	48	84	1.584686	280.0468	-1533.588	1	1558.948	-79.65131	-1.216265E-008	-0.2486368	7	6.449083E-006	0.0100689	-327.67
	49	88	1.266892	338.9516	-1874.915	1	1905.307	-79.75261	-1.130146E-008	-0.2486447	7	5.256618E-006	0.0100247	-327.67
	50	94	0.999041	418.3244	-2321.716	1	2359.102	-79.78609	-1.239619E-008	-0.2486442	7	4.240414E-006	0.0100091	-327.67
	51	99	0.7923428	519.1944	-2861.406	1	2908.127	-79.71572	-6.521084E-009	-0.2486448	7	3.439101E-006	0.0100048	-327.67
	52	106	0.6334459	644.5442	-3499.215	1	3558.082	-79.56329	-1.031973E-008	-0.2486418	6	2.803852E-006	0.0099785	-327.67
	53	114	0.5040323	812.7044	-4297.708	1	4373.875	-79.29171	-1.129723E-008	-0.2486449	6	2.286112E-006	0.0100005	-327.67
	54	123	0.400641	1034.322	-5277.285	1	5377.69	-78.91087	-1.153109E-008	-0.2486413	6	1.860209E-006	0.0100045	-327.67
	55	135	0.316723	1338.62	-6507.625	1	6643.876	-78.37638	-1.287309E-008	-0.2486399	6	1.50529E-006	0.0100015	-327.67
	56	149	0.2520161	1735.415	-7965.135	1	8151.997	-77.70869	-1.42392E-008	-0.248639	6	1.226953E-006	0.0100025	-327.67
	57	166	0.2003205	2271.5	-9743.44	1	10004.71	-76.87696	-1.601386E-008	-0.2486414	6	9.997601E-007	0.0100025	-327.67
	58	188	0.1588983	3003.451	-11907.88	1	12280.81	-75.84389	-1.776348E-008	-0.2486409	6	8.142382E-007	0.0099996	-327.67
	59	213	0.1260081	3999.237	-14512.14	1	15053.11	-74.59293	-2.031829E-008	-0.2486355	6	6.644991E-007	0.0100029	-327.67
	60	244	0.1001603	5330.163	-17573.54	1	18364.09	-73.12712	-2.396659E-008	-0.2486353	6	5.445177E-007	0.0099996	-327.67
	61	280	0.0794492	7156.171	-21211.08	1	22385.73	-71.35669	-2.752248E-008	-0.2486409	6	4.467271E-007	0.0100003	-327.67
	62	320	0.0631739	9640.11	-25365.04	1	27135.16	-69.19046	-2.848997E-008	-0.2486393	6	3.685843E-007	0.0100016	-327.67
	63	369	0.0501337	12968.99	-30104.1	1	32778.82	-66.69338	-3.011006E-008	-0.2486449	6	3.05084E-007	0.0100003	-327.67
	64	430	0.0398258	17327.68	-35279.2	1	39304.83	-63.84164	-3.378292E-008	-0.2486185	5	2.531369E-007	0.0099495	-327.67
	65	507	0.0316296	22948.92	-40722.23	1	46743.48	-60.59666	-3.647148E-008	-0.2486171	5	2.142911E-007	0.0100167	-327.67
	66	603	0.0251206	30079.76	-45949.94	1	54919.84	-56.79043	-4.12203E-008	-0.2486111	5	1.821547E-007	0.0100039	-327.67
	67	724	0.0199553	34641.16	-36614.18	1	50404.44	-46.58609	-2.368578E-007	-0.2485151	5	1.98012E-007	0.0099807	-327.67
	68	926	0.0158522	46190.67	-44634.61	1	64232.6	-44.01848	-1.801864E-007	-0.2485434	5	1.558589E-007	0.0100112	-327.67
	69	1117	0.0125907	53942.96	-44790.25	1	70114.26	-39.70374	-2.13785E-007	-0.2485266	5	1.426523E-007	0.010002	-327.67
	70	1357	0.0100011	62585.74	-44950.94	1	77055.58	-35.68703	-2.010913E-007	-0.2485337	5	1.298079E-007	0.0100024	-327.67
