EXPLAIN
TAG	EISPOT
TITLE	LABEL	Potentiostatic EIS	Test Identifier
DATE	LABEL	2024/12/18	Date
TIME	LABEL	20:21:44	Time
NOTES	NOTES	1	Notes...
	
PSTAT	PSTAT	REF620-49045	Potentiostat
VDC	POTEN	0.00000E+000	T	DC Voltage (V)
FREQINIT	QUANT	1.00000E+005	Initial Freq. (Hz)
FREQFINAL	QUANT	1.00000E-002	Final Freq. (Hz)
PTSPERDEC	QUANT	1.00000E+001	Points/decade
VAC	QUANT	1.00000E+001	AC Voltage (mV rms)
AREA	QUANT	1.00000E+000	Sample Area (cm^2)
SPEED	SELECTOR	1	Optimize for:
DRIFTCOR	SELECTOR	0	Drift Correction
THD	SELECTOR	0	THD
ZGUESS	QUANT	1.00000E+002	Estimated Z (ohms)
EOC	QUANT	-0.2375294	Open Circuit (V)
SEQUENCER	TOGGLE	TRUE	Run as Sequence
PSTATMODEL	IQUANT	87	Pstat Model
PSTATSECTION	LABEL	REF620-49045	Pstat Section
PSTATSERIALNO	LABEL	49045	Pstat Serial Number
CTRLMODE	IQUANT	1	Control Mode
ELECTROMETER	IQUANT	0	RE=0 or CS=1
IESTAB	IQUANT	0	I/E Stability
CASPEED	IQUANT	3	Control Amp Speed
CONVENTION	IQUANT	1	Current Convention
ICHRANGE	IQUANT	2	Ich Range
ICHRANGEMODE	TOGGLE	F	Ich Auto Range
ICHOFFSETENABLE	TOGGLE	T	Ich Offset Enable
ICHOFFSET	QUANT	0	Ich Offset (V)
ICHFILTER	IQUANT	3	Ich Filter
VCHRANGE	IQUANT	2	Vch Range
VCHRANGEMODE	TOGGLE	F	Vch Auto Range
VCHOFFSETENABLE	TOGGLE	T	Vch Offset Enable
VCHOFFSET	QUANT	0	Vch Offset (V)
VCHFILTER	IQUANT	3	Vch Filter
ACHRANGE	IQUANT	2	Ach Range
ACHOFFSETENABLE	TOGGLE	F	Ach Offset Enable
ACHOFFSET	QUANT	0	Ach Offset (V)
ACHFILTER	IQUANT	1	Ach Filter
IERANGELOWERLIMIT	IQUANT	1	I/E Range Lower Limit
IERANGEMODE	TOGGLE	F	I/E AutoRange
IERANGE	IQUANT	10	I/E Range
POSFEEDENABLE	TOGGLE	F	Positive Feedback IR Comp
POSFEEDRESISTANCE	QUANT	0	Positive Feedback Resistance (ohm)
ACHSELECT	IQUANT	4	Ach Select
SENSECABLEID	IQUANT	7	Sense Cable ID
PWRCABLEID	IQUANT	7	Power Cable ID
DCCALDATE	LABEL	4/1/2024	DC Calibration Date
ACCALDATE	LABEL	10/11/2023	AC Calibration Date
THERMOSELECT	IQUANT	1	Thermo Select
FRAMEWORKVERSION	LABEL	7.10.3	Framework Version
INSTRUMENTVERSION	LABEL	4.91	Instrument Version
COMMVERSION	LABEL	5.10	Communications Version
CPUPLDVERSION	LABEL	6.00	CPU PLD Version
CTRLPLDVERSION	LABEL	7.10	CTRL PLD Version
PSTATPLDVERSION	LABEL	8.13	PSTAT PLD Version
ZCURVE	TABLE
	Pt	Time	Freq	Zreal	Zimag	Zsig	Zmod	Zphz	Idc	Vdc	IERange	Imod	Vmod	Temp
	#	s	Hz	ohm	ohm	V	ohm	°	A	V	#	A	V	°C
	0	4	100078.1	11.31586	-0.2158933	1	11.31792	-1.093004	-5.059856E-006	-0.2370231	9	0.000887	0.010008	-327.67
	1	5	79453.13	11.32983	-0.2457167	1	11.33249	-1.242413	-5.242732E-006	-0.2370271	9	0.0010481	0.0118531	-327.67
	2	7	63140.62	11.34511	-0.2896008	1	11.34881	-1.462243	-5.408497E-006	-0.2370311	9	0.0010056	0.0113967	-327.67
	3	8	50203.12	11.36855	-0.345564	1	11.3738	-1.741054	-4.903744E-006	-0.2370242	9	0.0009739	0.0110672	-327.67
	4	10	39890.62	11.38968	-0.4034856	1	11.39682	-2.028887	-5.228588E-006	-0.2370214	9	0.000944	0.0107522	-327.67
	5	11	31640.63	11.42089	-0.4814426	1	11.43103	-2.41385	-5.110708E-006	-0.2370341	9	0.0009186	0.0104965	-327.67
	6	13	25171.88	11.46175	-0.5592202	1	11.47538	-2.793254	-5.183446E-006	-0.2370325	9	0.0009022	0.0103503	-327.67
	7	14	20015.62	11.50918	-0.6630234	1	11.52826	-3.297064	-5.066953E-006	-0.2370343	9	0.0008868	0.0102216	-327.67
	8	16	15890.62	11.55994	-0.7818692	1	11.58635	-3.869369	-5.20859E-006	-0.2370281	9	0.000875	0.0101375	-327.67
	9	17	12609.38	11.6229	-0.9225835	1	11.65946	-4.538415	-5.065031E-006	-0.2370269	9	0.0008651	0.0100865	-327.67
	10	19	10078.13	11.69592	-1.085055	1	11.74615	-5.300279	-5.05835E-006	-0.237026	9	0.000856	0.0100547	-327.67
	11	20	8015.625	11.78591	-1.281194	1	11.85534	-6.204011	-4.940415E-006	-0.2370262	9	0.0008463	0.0100325	-327.67
	12	22	6328.125	11.89087	-1.518894	1	11.98749	-7.27932	-5.032445E-006	-0.2370239	9	0.0008359	0.0100208	-327.67
	13	23	5015.625	12.00453	-1.795485	1	12.13806	-8.506515	-5.084702E-006	-0.2370229	9	0.0008246	0.010009	-327.67
	14	25	3984.375	12.14055	-2.119084	1	12.3241	-9.901	-5.01122E-006	-0.2370268	9	0.0008118	0.0100049	-327.67
	15	26	3170.956	12.27966	-2.5154	1	12.53465	-11.57648	-5.180234E-006	-0.2370224	9	0.0007976	0.0099976	-327.67
	16	27	2527.573	12.44439	-2.977146	1	12.79555	-13.45434	-5.161045E-006	-0.2370341	9	0.000782	0.0100059	-327.67
	17	29	1976.103	12.63523	-3.586457	1	13.13437	-15.84637	-4.949174E-006	-0.2370291	9	0.0007607	0.0099917	-327.67
	18	30	1577.524	12.83528	-4.274411	1	13.52831	-18.41881	-5.131795E-006	-0.2370259	9	0.0007393	0.0100009	-327.67
	19	32	1265.625	13.03783	-5.073546	1	13.9902	-21.26303	-5.100673E-006	-0.2370229	9	0.0007146	0.009997	-327.67
	20	33	998.264	13.28145	-6.128273	1	14.62712	-24.76936	-5.147162E-006	-0.2370334	9	0.0006835	0.0099977	-327.67
	21	35	796.875	13.53541	-7.369204	1	15.41144	-28.56559	-5.150936E-006	-0.2370286	9	0.0006488	0.0099991	-327.67
	22	36	627.7902	13.81848	-8.98767	1	16.48419	-33.04036	-4.774663E-006	-0.2370274	9	0.0006064	0.009996	-327.67
	23	38	505.5147	14.0989	-10.81385	1	17.76847	-37.4882	2.098318E-007	-0.2369835	9	0.0005462	0.0097243	-327.67
	24	39	397.9953	14.42876	-13.30951	1	19.62988	-42.68935	2.339871E-007	-0.2369928	9	0.0005176	0.0101716	-327.67
	25	41	315.5048	14.7758	-16.34661	1	22.03488	-47.8894	2.336678E-007	-0.2369887	9	0.0004566	0.010067	-327.67
	26	42	252.4038	15.13889	-19.98296	1	25.07	-52.85279	2.138186E-007	-0.2369892	9	0.0003997	0.0100246	-327.67
	27	44	198.6229	15.57358	-24.86874	1	29.34265	-57.94392	7.859755E-007	-0.2369887	9	0.0003411	0.0100107	-327.67
	28	45	158.3615	16.04779	-30.64287	1	34.59071	-62.35877	1.480794E-008	-0.2369914	8	0.0002882	0.0099698	-327.67
	29	47	125.558	16.59026	-38.03808	1	41.49858	-66.43564	5.986976E-009	-0.2369839	8	0.0002411	0.0100068	-327.67
	30	48	100.4464	17.21432	-46.91992	1	49.97811	-69.85256	1.088938E-008	-0.2369762	8	0.0002001	0.0100019	-327.67
	31	50	79.00281	18.02162	-58.90274	1	61.59798	-72.98822	5.996753E-009	-0.2369757	8	0.0001623	0.0099987	-327.67
	32	51	63.3446	18.91783	-72.67538	1	75.09724	-75.40937	1.732974E-008	-0.236977	8	0.000133	0.0099888	-327.67
	33	53	50.22321	20.06042	-90.70709	1	92.89886	-77.52942	2.904528E-008	-0.2369832	8	0.0001073	0.0099727	-327.67
	34	54	38.42213	21.77219	-117.1915	1	119.1967	-79.4754	1.711896E-009	-0.2369857	8	8.317562E-005	0.0099144	-327.67
	35	56	31.25	23.45218	-142.8756	1	144.7876	-80.67837	3.467861E-009	-0.2369765	8	6.802347E-005	0.009849	-327.67
	36	57	24.93351	25.6711	-177.4718	1	179.3189	-81.76932	2.738753E-008	-0.2369726	8	5.369818E-005	0.0096291	-327.67
	37	59	19.86229	28.44823	-220.1294	1	221.96	-82.63625	-4.264604E-008	-0.2369904	8	4.894814E-005	0.0108646	-327.67
	38	60	15.625	32.36474	-277.4024	1	279.284	-83.34534	-1.583101E-008	-0.2369816	8	3.582541E-005	0.0100055	-327.67
	39	62	12.40079	37.25219	-346.6704	1	348.6662	-83.8667	-1.646555E-008	-0.2370196	7	2.863055E-005	0.0099825	-327.67
	40	63	9.93114	43.33821	-429.3417	1	431.5235	-84.23602	-9.020056E-009	-0.2370039	7	2.315899E-005	0.0099937	-327.67
	41	65	7.944915	51.12518	-531.5651	1	534.0181	-84.50627	-2.504748E-009	-0.2370001	7	1.872054E-005	0.0099971	-327.67
	42	66	6.317385	61.63688	-662.6683	1	665.5286	-84.68603	-2.0313E-010	-0.2369964	7	1.503299E-005	0.0100049	-327.67
	43	69	5.008013	75.71205	-827.9849	1	831.4393	-84.77533	-2.727646E-009	-0.2370001	7	1.202981E-005	0.0100021	-327.67
	44	71	3.945707	94.6802	-1039.692	1	1043.994	-84.79668	-4.113119E-010	-0.2369965	7	9.580694E-006	0.0100022	-327.67
	45	73	3.158693	118.248	-1285.868	1	1291.294	-84.74588	-6.756196E-010	-0.2370009	7	7.743786E-006	0.0099995	-327.67
	46	76	2.504006	151.4868	-1605.724	1	1612.854	-84.61057	5.987388E-011	-0.2369991	7	6.015474E-006	0.0097433	-327.67
	47	80	1.998082	194.0398	-1989.675	1	1999.114	-84.42993	5.657768E-010	-0.2370022	7	5.070733E-006	0.0101626	-327.67
	48	84	1.584686	252.3069	-2477.923	1	2490.735	-84.18607	6.898127E-010	-0.2369985	7	4.033554E-006	0.0100616	-327.67
	49	88	1.266892	328.1663	-3060.898	1	3078.44	-83.88055	6.008893E-009	-0.2370007	7	3.253197E-006	0.010024	-327.67
	50	94	0.999041	437.401	-3827.609	1	3852.52	-83.48079	2.031381E-009	-0.2370022	6	2.5938E-006	0.0099982	-327.67
	51	99	0.7923428	582.5676	-4754.816	1	4790.372	-83.01485	2.453147E-009	-0.2369973	6	2.086858E-006	0.0100003	-327.67
	52	106	0.6334459	774.0054	-5856.396	1	5907.322	-82.47118	2.453831E-009	-0.2369975	6	1.693311E-006	0.0100051	-327.67
	53	114	0.5040323	1038.351	-7235.365	1	7309.493	-81.83321	2.310608E-009	-0.2370009	6	1.36803E-006	0.010001	-327.67
	54	123	0.400641	1401.766	-8932.251	1	9041.573	-81.08114	2.272897E-009	-0.2370016	6	1.106015E-006	0.010001	-327.67
	55	135	0.316723	1915.584	-11066.61	1	11231.18	-80.17964	1.999871E-009	-0.2369981	6	8.903945E-007	0.0100007	-327.67
	56	149	0.2520161	2604.478	-13596.86	1	13844.06	-79.15635	2.07737E-009	-0.2369979	6	7.22303E-007	0.0099999	-327.67
	57	166	0.2003205	3561.233	-16678.59	1	17054.55	-77.94713	1.803345E-009	-0.2369958	6	5.86419E-007	0.0100013	-327.67
	58	188	0.1588983	4901.926	-20428.22	1	21008.12	-76.50652	1.584618E-009	-0.2370001	6	4.759773E-007	0.0099995	-327.67
	59	213	0.1260081	6761.045	-24916.97	1	25817.96	-74.81873	9.688659E-010	-0.2369963	6	3.873542E-007	0.0100008	-327.67
	60	244	0.1001603	9299.762	-30159.91	1	31561.14	-72.86294	3.932783E-010	-0.2369933	6	3.168495E-007	0.0100002	-327.67
	61	280	0.0794492	12824.55	-36292.05	1	38491.32	-70.53807	-1.61724E-009	-0.2369851	5	2.588002E-007	0.0099616	-327.67
	62	320	0.0631739	17628.89	-43119.27	1	46583.79	-67.76328	-9.858321E-010	-0.2369838	5	2.149976E-007	0.0100154	-327.67
	63	369	0.0501337	24040.99	-50638.55	1	56055.61	-64.60366	-1.349129E-009	-0.2369868	5	1.784163E-007	0.0100012	-327.67
	64	430	0.0398258	32314.27	-58444.47	1	66782.99	-61.06155	-1.854888E-009	-0.2369885	5	1.497936E-007	0.0100037	-327.67
	65	507	0.0316296	42660.12	-66085.48	1	78658.61	-57.15657	-2.263417E-009	-0.236988	5	1.271249E-007	0.0099995	-327.67
	66	603	0.0251206	55070.7	-73003.42	1	91445.51	-52.97064	-3.121657E-009	-0.2369899	5	1.094014E-007	0.0100043	-327.67
	67	724	0.0199553	69168.5	-78642.55	1	104732.7	-48.66739	-4.603939E-009	-0.2369826	5	9.548358E-008	0.0100003	-327.67
	68	876	0.0158522	84505.9	-82629.99	1	118190.4	-44.35695	-6.270474E-009	-0.2369839	5	8.461529E-008	0.0100007	-327.67
	69	1067	0.0125907	100461.3	-85212.33	1	131733.1	-40.30497	-8.716463E-009	-0.2369868	5	7.593428E-008	0.0100031	-327.67
	70	1386	0.0100011	116516.8	-86280.31	1	144984.3	-36.51983	-1.079062E-008	-0.236983	5	6.898185E-008	0.0100013	-327.67
