EXPLAIN
TAG	EISPOT
TITLE	LABEL	Potentiostatic EIS	Test Identifier
DATE	LABEL	2024/12/19	Date
TIME	LABEL	20:38:33	Time
NOTES	NOTES	1	Notes...
	
PSTAT	PSTAT	REF620-49029	Potentiostat
VDC	POTEN	0.00000E+000	T	DC Voltage (V)
FREQINIT	QUANT	1.00000E+005	Initial Freq. (Hz)
FREQFINAL	QUANT	1.00000E-002	Final Freq. (Hz)
PTSPERDEC	QUANT	1.00000E+001	Points/decade
VAC	QUANT	1.00000E+001	AC Voltage (mV rms)
AREA	QUANT	1.00000E+000	Sample Area (cm^2)
SPEED	SELECTOR	1	Optimize for:
DRIFTCOR	SELECTOR	0	Drift Correction
THD	SELECTOR	0	THD
ZGUESS	QUANT	1.00000E+002	Estimated Z (ohms)
EOC	QUANT	-0.1522421	Open Circuit (V)
SEQUENCER	TOGGLE	TRUE	Run as Sequence
PSTATMODEL	IQUANT	87	Pstat Model
PSTATSECTION	LABEL	REF620-49029	Pstat Section
PSTATSERIALNO	LABEL	49029	Pstat Serial Number
CTRLMODE	IQUANT	1	Control Mode
ELECTROMETER	IQUANT	0	RE=0 or CS=1
IESTAB	IQUANT	0	I/E Stability
CASPEED	IQUANT	3	Control Amp Speed
CONVENTION	IQUANT	1	Current Convention
ICHRANGE	IQUANT	2	Ich Range
ICHRANGEMODE	TOGGLE	F	Ich Auto Range
ICHOFFSETENABLE	TOGGLE	T	Ich Offset Enable
ICHOFFSET	QUANT	0	Ich Offset (V)
ICHFILTER	IQUANT	3	Ich Filter
VCHRANGE	IQUANT	2	Vch Range
VCHRANGEMODE	TOGGLE	F	Vch Auto Range
VCHOFFSETENABLE	TOGGLE	T	Vch Offset Enable
VCHOFFSET	QUANT	0	Vch Offset (V)
VCHFILTER	IQUANT	3	Vch Filter
ACHRANGE	IQUANT	2	Ach Range
ACHOFFSETENABLE	TOGGLE	F	Ach Offset Enable
ACHOFFSET	QUANT	0	Ach Offset (V)
ACHFILTER	IQUANT	1	Ach Filter
IERANGELOWERLIMIT	IQUANT	1	I/E Range Lower Limit
IERANGEMODE	TOGGLE	F	I/E AutoRange
IERANGE	IQUANT	10	I/E Range
POSFEEDENABLE	TOGGLE	F	Positive Feedback IR Comp
POSFEEDRESISTANCE	QUANT	0	Positive Feedback Resistance (ohm)
ACHSELECT	IQUANT	4	Ach Select
SENSECABLEID	IQUANT	7	Sense Cable ID
PWRCABLEID	IQUANT	7	Power Cable ID
DCCALDATE	LABEL	3/28/2024	DC Calibration Date
ACCALDATE	LABEL	6/22/2023	AC Calibration Date
THERMOSELECT	IQUANT	1	Thermo Select
FRAMEWORKVERSION	LABEL	7.10.3	Framework Version
INSTRUMENTVERSION	LABEL	4.91	Instrument Version
COMMVERSION	LABEL	5.10	Communications Version
CPUPLDVERSION	LABEL	6.00	CPU PLD Version
CTRLPLDVERSION	LABEL	7.10	CTRL PLD Version
PSTATPLDVERSION	LABEL	8.13	PSTAT PLD Version
ZCURVE	TABLE
	Pt	Time	Freq	Zreal	Zimag	Zsig	Zmod	Zphz	Idc	Vdc	IERange	Imod	Vmod	Temp
	#	s	Hz	ohm	ohm	V	ohm	°	A	V	#	A	V	°C
	0	4	100078.1	12.95602	-2.32675	1	13.16329	-10.18112	-0.0001815	-0.1546361	9	0.0006981	0.009206	-327.67
	1	6	79453.13	13.10816	-2.324316	1	13.31263	-10.05508	-0.0001884	-0.1543741	9	0.000885	0.0117938	-327.67
	2	7	63140.62	13.3441	-2.556705	1	13.58682	-10.84632	-0.000267	-0.1537837	9	0.0008359	0.0113643	-327.67
	3	9	50203.12	13.42441	-2.930193	1	13.74048	-12.31303	-0.0001915	-0.1548383	9	0.0005277	0.0072534	-327.67
	4	11	39890.62	13.52338	-3.271279	1	13.91342	-13.59851	-0.0001956	-0.1547545	9	0.0005108	0.0071079	-327.67
	5	12	31640.63	14.03213	-4.404285	1	14.70708	-17.42559	-0.0002507	-0.153319	9	0.0007149	0.0105159	-327.67
	6	14	25171.88	13.68187	-4.296021	1	14.34048	-17.43196	-0.0001884	-0.1547888	9	0.0006823	0.009785	-327.67
	7	15	20015.62	13.81814	-5.684321	1	14.94164	-22.36062	-0.0001891	-0.1547077	9	0.0006807	0.010171	-327.67
	8	17	15890.62	13.88757	-6.813629	1	15.469	-26.13386	-0.0001773	-0.1547434	9	0.0006431	0.009949	-327.67
	9	18	12609.38	14.58179	-8.028288	1	16.64578	-28.83584	-0.0001955	-0.1543415	9	0.0006124	0.0101941	-327.67
	10	20	10078.13	15.86092	-9.93285	1	18.71444	-32.05672	-0.0001742	-0.1563212	9	0.0005824	0.0108995	-327.67
	11	21	8015.625	14.75059	-10.56033	1	18.14112	-35.59985	-0.0001913	-0.1546376	9	0.0003747	0.006798	-327.67
	12	24	6328.125	15.3476	-14.70282	1	21.25375	-43.77081	-0.0001998	-0.1544658	9	0.0004914	0.0104443	-327.67
	13	27	5015.625	15.48208	-17.62812	1	23.46157	-48.70843	-0.0001881	-0.1543457	9	0.0004148	0.0097311	-327.67
	14	28	3984.375	16.09892	-24.58038	1	29.38316	-56.77721	-0.0002528	-0.1535809	9	0.0003225	0.0094771	-327.67
	15	30	3170.956	16.50393	-26.95857	1	31.60924	-58.5252	-0.0001882	-0.154714	9	0.000223	0.0070501	-327.67
	16	32	2527.573	16.0041	-35.17222	1	38.64216	-65.53348	-0.0001911	-0.1545372	9	0.0001638	0.0063311	-327.67
	17	34	1976.103	19.07986	-40.65246	1	44.90728	-64.85742	-0.000188	-0.1548151	9	0.000214	0.0096086	-327.67
	18	37	1577.524	22.62461	-46.6811	1	51.87483	-64.14225	-4.041224E-005	-0.1519838	8	0.0001243	0.0064489	-327.67
	19	39	1265.625	21.79655	-64.45525	1	68.04094	-71.31623	-5.690208E-005	-0.1533683	8	0.0001463	0.0099576	-327.67
	20	42	998.264	24.18499	-78.08414	1	81.74379	-72.79069	-3.889235E-005	-0.1525315	8	0.0001198	0.009789	-327.67
	21	44	796.875	30.56351	-98.4397	1	103.0752	-72.7515	-2.648746E-005	-0.1490399	8	0.0001006	0.0103744	-327.67
	22	45	627.7902	28.74052	-130.8309	1	133.9505	-77.61024	-3.5961E-005	-0.1527317	8	7.49976E-005	0.010046	-327.67
	23	46	505.5147	35.15345	-146.4489	1	150.6089	-76.50215	3.436463E-008	-0.1523142	8	6.230035E-005	0.0093689	-327.67
	24	48	397.9953	41.27037	-181.8805	1	186.5041	-77.21554	2.531649E-008	-0.1523179	8	5.459497E-005	0.0101743	-327.67
	25	49	315.5048	48.93163	-224.3139	1	229.5889	-77.69432	4.068349E-008	-0.1523196	8	4.387397E-005	0.0100688	-327.67
	26	51	252.4038	58.40556	-274.036	1	280.1909	-77.96851	4.3635E-008	-0.1523216	8	3.577271E-005	0.0100208	-327.67
	27	52	198.6229	71.37029	-339.4704	1	346.8918	-78.12704	-1.183764E-011	-0.1523171	7	2.88778E-005	0.0100161	-327.67
	28	54	158.3615	86.79459	-415.0113	1	423.9901	-78.18754	7.747452E-009	-0.1523096	7	2.357895E-005	0.0099964	-327.67
	29	55	125.558	106.8984	-508.9973	1	520.1014	-78.13925	-1.892222E-009	-0.1523033	7	1.921591E-005	0.0099937	-327.67
	30	57	100.4464	130.8704	-618.6658	1	632.3563	-78.05593	5.012637E-009	-0.152309	7	1.580763E-005	0.0099957	-327.67
	31	58	79.00281	163.0491	-761.9293	1	779.1798	-77.92117	-4.432776E-009	-0.1523114	7	1.282202E-005	0.0099905	-327.67
	32	60	63.3446	199.0872	-922.5095	1	943.7476	-77.82174	-1.388233E-008	-0.1523112	7	1.057972E-005	0.0099845	-327.67
	33	61	50.22321	248.3127	-1121.963	1	1149.113	-77.52047	-8.610442E-009	-0.1523177	7	8.675735E-006	0.0099693	-327.67
	34	63	38.42213	311.5858	-1417.569	1	1451.409	-77.60336	-1.603926E-010	-0.1523128	7	6.83227E-006	0.0099164	-327.67
	35	64	31.25	372.2677	-1692.159	1	1732.624	-77.59281	4.855629E-009	-0.1523077	7	5.681833E-006	0.0098444	-327.67
	36	66	24.93351	450.6087	-2057.243	1	2106.015	-77.64532	-7.163067E-009	-0.1523179	7	4.58079E-006	0.0096472	-327.67
	37	67	19.86229	520.7149	-2441.13	1	2496.049	-77.95876	-1.17365E-008	-0.1523252	7	4.331357E-006	0.0108113	-327.67
	38	69	15.625	652.8902	-3035.486	1	3104.906	-77.86141	-1.252801E-008	-0.1523222	7	3.222025E-006	0.0100041	-327.67
	39	70	12.40079	811.5261	-3746.203	1	3833.094	-77.77708	-7.076995E-009	-0.1523234	6	2.601968E-006	0.0099736	-327.67
	40	72	9.93114	983.318	-4546.163	1	4651.292	-77.79516	-5.980628E-009	-0.1523357	6	2.146057E-006	0.0099819	-327.67
	41	73	7.944915	1196.512	-5518.973	1	5647.185	-77.7676	-4.408161E-009	-0.1523333	6	1.771568E-006	0.0100044	-327.67
	42	75	6.317385	1469.694	-6739.092	1	6897.489	-77.69729	-3.380151E-009	-0.1523316	6	1.450063E-006	0.0100018	-327.67
	43	77	5.008013	1817.931	-8247.003	1	8444.994	-77.56879	-2.929987E-009	-0.1523292	6	1.18471E-006	0.0100049	-327.67
	44	80	3.945707	2262.626	-10131.27	1	10380.85	-77.41067	-2.971134E-009	-0.1523234	6	9.625822E-007	0.0099924	-327.67
	45	83	3.158693	2789.298	-12281.78	1	12594.53	-77.20467	-2.963898E-009	-0.1523246	6	7.947102E-007	0.010009	-327.67
	46	86	2.504006	3384.933	-14980.43	1	15358.09	-77.26743	-2.707739E-009	-0.1523181	6	6.368583E-007	0.0097253	-327.67
	47	90	1.998082	4210.463	-18198.88	1	18679.59	-76.97334	-2.846486E-009	-0.152317	6	5.46278E-007	0.010171	-327.67
	48	94	1.584686	5280.684	-22209.53	1	22828.69	-76.62533	-2.657522E-009	-0.1523202	6	4.422068E-007	0.010076	-327.67
	49	98	1.266892	6588.662	-26891.37	1	27686.75	-76.23314	-2.43552E-009	-0.1523187	6	3.6266E-007	0.0100295	-327.67
	50	104	0.999041	8362.058	-32903.54	1	33949.48	-75.74081	-2.608426E-009	-0.1522936	5	2.940939E-007	0.0099776	-327.67
	51	109	0.7923428	10611.26	-40002.93	1	41386.39	-75.14375	-2.576505E-009	-0.1522933	5	2.424758E-007	0.0100311	-327.67
	52	116	0.6334459	13394.54	-48207.33	1	50033.59	-74.47189	-2.523913E-009	-0.1522895	5	2.000431E-007	0.0100063	-327.67
	53	124	0.5040323	17021.94	-58171.38	1	60610.7	-73.68962	-2.536865E-009	-0.1522853	5	1.651242E-007	0.0100067	-327.67
	54	133	0.400641	21672.52	-70053.93	1	73329.74	-72.80955	-2.58339E-009	-0.1522828	5	1.364251E-007	0.010003	-327.67
	55	145	0.316723	27699.35	-84469.14	1	88894.82	-71.84451	-2.670009E-009	-0.1522832	5	1.125252E-007	0.0100023	-327.67
	56	159	0.2520161	35101.76	-101063.9	1	106986.2	-70.84673	-2.820106E-009	-0.1522829	5	9.350893E-008	0.0100038	-327.67
	57	176	0.2003205	44483.18	-120749.6	1	128682.6	-69.77661	-3.008443E-009	-0.1522865	5	7.773114E-008	0.0100024	-327.67
	58	198	0.1588983	56523.56	-144157.9	1	154843.2	-68.59011	-3.297193E-009	-0.1522909	5	6.458689E-008	0.0100007	-327.67
	59	223	0.1260081	72003.04	-171771.8	1	186252.4	-67.25761	-3.713338E-009	-0.1522943	5	5.369963E-008	0.0100016	-327.67
	60	254	0.1001603	91942.17	-203536.4	1	223339.3	-65.69019	-4.135298E-009	-0.152295	5	4.477987E-008	0.010001	-327.67
	61	290	0.0794492	118096.7	-240027.5	1	267507.1	-63.80221	-4.490105E-009	-0.1522952	5	3.738458E-008	0.0100006	-327.67
	62	330	0.0631739	152058.8	-279839.8	1	318484.2	-61.48131	-4.683842E-009	-0.1522922	5	3.1403E-008	0.0100013	-327.67
	63	379	0.0501337	195850.9	-323201.8	1	377911.3	-58.78535	-5.078242E-009	-0.1522611	4	2.630019E-008	0.0099391	-327.67
	64	440	0.0398258	250305.6	-366967.7	1	444205.1	-55.70242	-5.523598E-009	-0.1522642	4	2.256109E-008	0.0100217	-327.67
	65	517	0.0316296	316439.2	-409695.1	1	517671.6	-52.31832	-5.906011E-009	-0.1522555	4	1.932466E-008	0.0100038	-327.67
	66	613	0.0251206	394301.3	-447659.1	1	596550.2	-48.62617	-6.342892E-009	-0.1522535	4	1.677254E-008	0.0100057	-327.67
	67	734	0.0199553	481709.4	-477446.9	1	678232.6	-44.74538	-6.740633E-009	-0.152258	4	1.474886E-008	0.0100032	-327.67
	68	886	0.0158522	576565.9	-497739.7	1	761690.9	-40.80349	-7.018702E-009	-0.1522607	4	1.313197E-008	0.0100025	-327.67
	69	1077	0.0125907	674342.8	-506942.8	1	843640.4	-36.93432	-7.345211E-009	-0.1522599	4	1.185501E-008	0.0100014	-327.67
	70	1317	0.0100011	771037.7	-505611.9	1	922031.7	-33.25506	-7.636316E-009	-0.1522558	4	1.084688E-008	0.0100012	-327.67
