EXPLAIN
TAG	EISPOT
TITLE	LABEL	Potentiostatic EIS	Test Identifier
DATE	LABEL	2024/12/20	Date
TIME	LABEL	10:52:43	Time
NOTES	NOTES	1	Notes...
	
PSTAT	PSTAT	REF620-49029	Potentiostat
VDC	POTEN	0.00000E+000	T	DC Voltage (V)
FREQINIT	QUANT	1.00000E+005	Initial Freq. (Hz)
FREQFINAL	QUANT	1.00000E-002	Final Freq. (Hz)
PTSPERDEC	QUANT	1.00000E+001	Points/decade
VAC	QUANT	1.00000E+001	AC Voltage (mV rms)
AREA	QUANT	1.00000E+000	Sample Area (cm^2)
SPEED	SELECTOR	1	Optimize for:
DRIFTCOR	SELECTOR	0	Drift Correction
THD	SELECTOR	0	THD
ZGUESS	QUANT	1.00000E+002	Estimated Z (ohms)
EOC	QUANT	-0.0809638	Open Circuit (V)
SEQUENCER	TOGGLE	TRUE	Run as Sequence
PSTATMODEL	IQUANT	87	Pstat Model
PSTATSECTION	LABEL	REF620-49029	Pstat Section
PSTATSERIALNO	LABEL	49029	Pstat Serial Number
CTRLMODE	IQUANT	1	Control Mode
ELECTROMETER	IQUANT	0	RE=0 or CS=1
IESTAB	IQUANT	0	I/E Stability
CASPEED	IQUANT	3	Control Amp Speed
CONVENTION	IQUANT	1	Current Convention
ICHRANGE	IQUANT	2	Ich Range
ICHRANGEMODE	TOGGLE	F	Ich Auto Range
ICHOFFSETENABLE	TOGGLE	T	Ich Offset Enable
ICHOFFSET	QUANT	0	Ich Offset (V)
ICHFILTER	IQUANT	3	Ich Filter
VCHRANGE	IQUANT	2	Vch Range
VCHRANGEMODE	TOGGLE	F	Vch Auto Range
VCHOFFSETENABLE	TOGGLE	T	Vch Offset Enable
VCHOFFSET	QUANT	0	Vch Offset (V)
VCHFILTER	IQUANT	3	Vch Filter
ACHRANGE	IQUANT	2	Ach Range
ACHOFFSETENABLE	TOGGLE	F	Ach Offset Enable
ACHOFFSET	QUANT	0	Ach Offset (V)
ACHFILTER	IQUANT	1	Ach Filter
IERANGELOWERLIMIT	IQUANT	1	I/E Range Lower Limit
IERANGEMODE	TOGGLE	F	I/E AutoRange
IERANGE	IQUANT	10	I/E Range
POSFEEDENABLE	TOGGLE	F	Positive Feedback IR Comp
POSFEEDRESISTANCE	QUANT	0	Positive Feedback Resistance (ohm)
ACHSELECT	IQUANT	4	Ach Select
SENSECABLEID	IQUANT	7	Sense Cable ID
PWRCABLEID	IQUANT	7	Power Cable ID
DCCALDATE	LABEL	3/28/2024	DC Calibration Date
ACCALDATE	LABEL	6/22/2023	AC Calibration Date
THERMOSELECT	IQUANT	1	Thermo Select
FRAMEWORKVERSION	LABEL	7.10.3	Framework Version
INSTRUMENTVERSION	LABEL	4.91	Instrument Version
COMMVERSION	LABEL	5.10	Communications Version
CPUPLDVERSION	LABEL	6.00	CPU PLD Version
CTRLPLDVERSION	LABEL	7.10	CTRL PLD Version
PSTATPLDVERSION	LABEL	8.13	PSTAT PLD Version
ZCURVE	TABLE
	Pt	Time	Freq	Zreal	Zimag	Zsig	Zmod	Zphz	Idc	Vdc	IERange	Imod	Vmod	Temp
	#	s	Hz	ohm	ohm	V	ohm	°	A	V	#	A	V	°C
	0	3	100078.1	34.69704	-7.687431	1	35.53845	-12.49257	-3.288438E-005	-0.0820211	8	0.0001829	0.0065092	-327.67
	1	5	79453.13	32.53922	-7.756501	1	33.45092	-13.40761	-2.772492E-005	-0.0825127	8	0.0001737	0.0058155	-327.67
	2	7	63140.62	32.89837	-7.186504	1	33.67416	-12.32244	-4.003236E-005	-0.0830134	8	0.0003592	0.0121037	-327.67
	3	8	50203.12	33.87038	-4.943826	1	34.22929	-8.304425	-3.184815E-005	-0.081839	8	0.0002596	0.0088901	-327.67
	4	10	39890.62	35.57108	-6.375757	1	36.13796	-10.16178	-3.036237E-005	-0.0810279	8	0.000332	0.0119997	-327.67
	5	11	31640.63	33.90434	-5.488643	1	34.34573	-9.195617	-3.106341E-005	-0.0821347	8	0.0002028	0.0069668	-327.67
	6	13	25171.88	34.94473	-6.794085	1	35.59906	-11.0024	-4.116422E-005	-0.081739	8	0.0003096	0.0110225	-327.67
	7	15	20015.62	34.80231	-5.22831	1	35.19284	-8.543587	-3.140846E-005	-0.0829043	8	0.0001939	0.0068234	-327.67
	8	16	15890.62	36.20336	-6.098882	1	36.71348	-9.56236	-4.42615E-005	-0.08052	8	0.000298	0.0109419	-327.67
	9	18	12609.38	35.26047	-9.276537	1	36.46032	-14.73971	-3.116779E-005	-0.0818886	8	0.0001788	0.0065185	-327.67
	10	19	10078.13	34.67068	-13.06487	1	37.0506	-20.6478	-3.235585E-005	-0.0830139	8	0.0001785	0.0066131	-327.67
	11	21	8015.625	35.45171	-13.32191	1	37.87211	-20.59502	-3.192824E-005	-0.0825245	8	0.0002648	0.0100274	-327.67
	12	22	6328.125	36.91648	-15.15203	1	39.90502	-22.31524	-2.919735E-005	-0.0822686	8	0.0001706	0.0068071	-327.67
	13	24	5015.625	37.11897	-18.58446	1	41.51144	-26.59589	-3.063758E-005	-0.0817483	8	0.0001588	0.0065916	-327.67
	14	27	3984.375	38.06553	-22.75143	1	44.3465	-30.86638	-2.738327E-005	-0.0818888	8	0.0002247	0.0099632	-327.67
	15	28	3170.956	41.89756	-26.67641	1	49.66927	-32.48513	-2.936382E-005	-0.0815322	8	0.0002051	0.0101873	-327.67
	16	30	2527.573	43.26767	-35.18594	1	55.76865	-39.11854	-3.251954E-005	-0.0823712	8	0.0001257	0.0070105	-327.67
	17	31	1976.103	40.16893	-40.12675	1	56.77762	-44.9699	-3.044465E-005	-0.0819955	8	0.0001597	0.0090683	-327.67
	18	33	1577.524	43.28449	-48.95125	1	65.34349	-48.51571	-3.114807E-005	-0.0821109	8	0.0001037	0.0067748	-327.67
	19	34	1265.625	43.74301	-60.903	1	74.98417	-54.31256	-2.898749E-005	-0.0820764	8	0.0001333	0.0099954	-327.67
	20	36	998.264	41.70316	-101.9984	1	110.1945	-67.76227	-3.247397E-005	-0.0818952	8	5.14721E-005	0.0056719	-327.67
	21	38	796.875	51.84567	-92.55029	1	106.0826	-60.74292	-2.829493E-005	-0.0818852	8	5.041503E-005	0.0053482	-327.67
	22	40	627.7902	41.56704	-118.3957	1	125.4805	-70.65456	-3.275312E-005	-0.082374	8	7.889437E-005	0.0098997	-327.67
	23	41	505.5147	56.19375	-138.1706	1	149.1605	-67.86851	9.960476E-008	-0.0810183	8	6.398493E-005	0.0095297	-327.67
	24	42	397.9953	61.04312	-171.5369	1	182.0747	-70.41139	9.990593E-008	-0.0810189	8	5.593191E-005	0.0101759	-327.67
	25	44	315.5048	66.89226	-211.7687	1	222.0823	-72.47002	9.934685E-008	-0.0810134	8	4.53601E-005	0.0100695	-327.67
	26	45	252.4038	73.80048	-259.3369	1	269.6333	-74.11504	9.861915E-008	-0.0810104	8	3.719594E-005	0.0100269	-327.67
	27	47	198.6229	83.19623	-322.542	1	333.099	-75.53644	6.028131E-009	-0.0810102	7	3.005297E-005	0.0100092	-327.67
	28	48	158.3615	94.22765	-396.3181	1	407.3658	-76.62581	6.946749E-009	-0.0809982	7	2.454825E-005	0.0099993	-327.67
	29	50	125.558	108.3417	-489.5204	1	501.3663	-77.52035	3.246306E-009	-0.0810137	7	1.993561E-005	0.0099945	-327.67
	30	51	100.4464	125.6094	-599.7965	1	612.8079	-78.17205	4.407234E-009	-0.0810079	7	1.630985E-005	0.0099945	-327.67
	31	53	79.00281	149.333	-746.5087	1	761.2986	-78.68777	4.640412E-009	-0.0810054	7	1.312808E-005	0.0099942	-327.67
	32	54	63.3446	177.1859	-912.5722	1	929.6144	-79.01211	7.44464E-010	-0.081011	7	1.073962E-005	0.0099836	-327.67
	33	56	50.22321	211.3188	-1129.508	1	1149.106	-79.40308	5.991332E-010	-0.081011	7	8.676101E-006	0.0099697	-327.67
	34	57	38.42213	272.0004	-1436.637	1	1462.16	-79.27901	4.596287E-009	-0.0809982	7	6.780081E-006	0.0099135	-327.67
	35	59	31.25	332.2831	-1730.341	1	1761.957	-79.12963	7.177231E-009	-0.081001	7	5.591506E-006	0.009852	-327.67
	36	60	24.93351	415.925	-2118.095	1	2158.546	-78.89033	3.341327E-012	-0.0810007	7	4.466897E-006	0.009642	-327.67
	37	62	19.86229	518.4741	-2572.728	1	2624.451	-78.60597	-2.346902E-008	-0.081023	7	4.121647E-006	0.0108171	-327.67
	38	63	15.625	669.0109	-3181.392	1	3250.974	-78.12437	-1.094587E-008	-0.0810288	7	3.075386E-006	0.009998	-327.67
	39	65	12.40079	871.4198	-3904.999	1	4001.049	-77.42028	-8.876876E-009	-0.08103	6	2.492329E-006	0.0099719	-327.67
	40	66	9.93114	1121.176	-4730.316	1	4861.371	-76.66586	-7.033261E-009	-0.0810321	6	2.052678E-006	0.0099788	-327.67
	41	68	7.944915	1439.258	-5712.004	1	5890.539	-75.85754	-6.594062E-009	-0.0810294	6	1.698254E-006	0.0100036	-327.67
	42	70	6.317385	1853.506	-6905.566	1	7149.988	-74.9755	-3.681527E-009	-0.0810227	6	1.399479E-006	0.0100063	-327.67
	43	72	5.008013	2384.616	-8343.532	1	8677.61	-74.04984	-2.400702E-009	-0.0810241	6	1.152697E-006	0.0100027	-327.67
	44	74	3.945707	3062.618	-10093.3	1	10547.72	-73.12059	-2.828897E-009	-0.0810222	6	9.47959E-007	0.0099988	-327.67
	45	77	3.158693	3849.885	-12022.62	1	12623.98	-72.24388	-1.766747E-009	-0.0810266	6	7.924147E-007	0.0100034	-327.67
	46	80	2.504006	4790.735	-14401.07	1	15177.02	-71.59952	-1.754494E-009	-0.0810167	6	6.443962E-007	0.0097244	-327.67
	47	84	1.998082	6014.746	-17141.69	1	18166.3	-70.66483	-1.364529E-009	-0.0810193	6	5.620761E-007	0.0101775	-327.67
	48	88	1.584686	7569.471	-20440.07	1	21796.64	-69.67915	-1.169693E-009	-0.0810234	6	4.629522E-007	0.0100718	-327.67
	49	92	1.266892	9421.114	-24163.51	1	25935.16	-68.69968	-9.555372E-010	-0.0810197	6	3.870805E-007	0.0100277	-327.67
	50	98	0.999041	11855.95	-28790.14	1	31135.76	-67.61784	-1.094241E-009	-0.0810207	6	3.218636E-007	0.0100147	-327.67
	51	103	0.7923428	14821.73	-34066.79	1	37151.45	-66.48717	-1.315989E-009	-0.0809999	5	2.68114E-007	0.0099567	-327.67
	52	110	0.6334459	18399.28	-39965.46	1	43997.4	-65.27962	-1.236179E-009	-0.0809993	5	2.280163E-007	0.0100295	-327.67
	53	118	0.5040323	22988.94	-46881.1	1	52214.26	-63.8782	-1.231535E-009	-0.0810043	5	1.917086E-007	0.0100083	-327.67
	54	127	0.400641	28856.48	-54799.62	1	61932.98	-62.22952	-6.456162E-010	-0.0810013	5	1.615235E-007	0.0100026	-327.67
	55	139	0.316723	36389.62	-63669.78	1	73335.16	-60.25045	-1.439037E-009	-0.0810046	5	1.364304E-007	0.0100045	-327.67
	56	153	0.2520161	45683.29	-73021.34	1	86134.08	-57.96926	-1.654814E-009	-0.0810019	5	1.161288E-007	0.0100023	-327.67
	57	171	0.2003205	57270.51	-82719.37	1	100610.2	-55.30332	-1.927444E-009	-0.0810021	5	9.942213E-008	0.0100026	-327.67
	58	192	0.1588983	71441.63	-92219.94	1	116655.1	-52.2355	-2.24159E-009	-0.0810023	5	8.574654E-008	0.0100026	-327.67
	59	217	0.1260081	88141.7	-100842	1	133933.1	-48.84468	-2.997599E-009	-0.0809999	5	7.467835E-008	0.0100018	-327.67
	60	248	0.1001603	106834.9	-107809.6	1	151778.1	-45.2602	-4.15818E-009	-0.0810024	5	6.589028E-008	0.0100006	-327.67
	61	284	0.0794492	126997.3	-112012	1	169336.9	-41.41239	-4.768046E-009	-0.080998	5	5.905746E-008	0.0100006	-327.67
	62	324	0.0631739	147646.5	-112631.2	1	185702.1	-37.33796	-4.116325E-009	-0.0809967	5	5.386255E-008	0.0100024	-327.67
	63	373	0.0501337	167414.6	-111087.6	1	200918.2	-33.56618	-4.310572E-009	-0.0809981	5	4.977717E-008	0.0100011	-327.67
	64	434	0.0398258	184817.3	-106833.1	1	213473	-30.02994	-3.879412E-009	-0.0809997	5	4.684119E-008	0.0099993	-327.67
	65	536	0.0316296	199549.7	-100993	1	223650.8	-26.84417	-3.557851E-009	-0.0809958	5	4.471375E-008	0.0100003	-327.67
	66	664	0.0251206	211648.6	-94589.76	1	231824	-24.08077	-3.660589E-009	-0.0809975	5	4.314358E-008	0.0100017	-327.67
	67	825	0.0199553	221370.5	-87719.99	1	238117	-21.61638	-3.302099E-009	-0.081016	5	4.199452E-008	0.0099996	-327.67
	68	1027	0.0158522	228629.2	-76222.21	1	241000.3	-18.43776	-7.417165E-010	-0.0810084	5	4.148447E-008	0.0099978	-327.67
	69	1407	0.0125907	234620.9	-63550.71	1	243075.4	-15.15579	1.93933E-009	-0.0810091	5	4.115075E-008	0.0100027	-327.67
	70	1806	0.0100011	238029.2	-51073.61	1	243447	-12.11026	7.089193E-009	-0.0810142	5	4.107211E-008	0.0099989	-327.67
