EXPLAIN
TAG	EISPOT
TITLE	LABEL	Potentiostatic EIS	Test Identifier
DATE	LABEL	2024/12/19	Date
TIME	LABEL	10:36:59	Time
NOTES	NOTES	1	Notes...
	
PSTAT	PSTAT	REF620-49029	Potentiostat
VDC	POTEN	0.00000E+000	T	DC Voltage (V)
FREQINIT	QUANT	1.00000E+005	Initial Freq. (Hz)
FREQFINAL	QUANT	1.00000E-002	Final Freq. (Hz)
PTSPERDEC	QUANT	1.00000E+001	Points/decade
VAC	QUANT	1.00000E+001	AC Voltage (mV rms)
AREA	QUANT	1.00000E+000	Sample Area (cm^2)
SPEED	SELECTOR	1	Optimize for:
DRIFTCOR	SELECTOR	0	Drift Correction
THD	SELECTOR	0	THD
ZGUESS	QUANT	1.00000E+002	Estimated Z (ohms)
EOC	QUANT	-0.2348396	Open Circuit (V)
SEQUENCER	TOGGLE	TRUE	Run as Sequence
PSTATMODEL	IQUANT	87	Pstat Model
PSTATSECTION	LABEL	REF620-49029	Pstat Section
PSTATSERIALNO	LABEL	49029	Pstat Serial Number
CTRLMODE	IQUANT	1	Control Mode
ELECTROMETER	IQUANT	0	RE=0 or CS=1
IESTAB	IQUANT	0	I/E Stability
CASPEED	IQUANT	3	Control Amp Speed
CONVENTION	IQUANT	1	Current Convention
ICHRANGE	IQUANT	2	Ich Range
ICHRANGEMODE	TOGGLE	F	Ich Auto Range
ICHOFFSETENABLE	TOGGLE	T	Ich Offset Enable
ICHOFFSET	QUANT	0	Ich Offset (V)
ICHFILTER	IQUANT	3	Ich Filter
VCHRANGE	IQUANT	2	Vch Range
VCHRANGEMODE	TOGGLE	F	Vch Auto Range
VCHOFFSETENABLE	TOGGLE	T	Vch Offset Enable
VCHOFFSET	QUANT	0	Vch Offset (V)
VCHFILTER	IQUANT	3	Vch Filter
ACHRANGE	IQUANT	2	Ach Range
ACHOFFSETENABLE	TOGGLE	F	Ach Offset Enable
ACHOFFSET	QUANT	0	Ach Offset (V)
ACHFILTER	IQUANT	1	Ach Filter
IERANGELOWERLIMIT	IQUANT	1	I/E Range Lower Limit
IERANGEMODE	TOGGLE	F	I/E AutoRange
IERANGE	IQUANT	10	I/E Range
POSFEEDENABLE	TOGGLE	F	Positive Feedback IR Comp
POSFEEDRESISTANCE	QUANT	0	Positive Feedback Resistance (ohm)
ACHSELECT	IQUANT	4	Ach Select
SENSECABLEID	IQUANT	7	Sense Cable ID
PWRCABLEID	IQUANT	7	Power Cable ID
DCCALDATE	LABEL	3/28/2024	DC Calibration Date
ACCALDATE	LABEL	6/22/2023	AC Calibration Date
THERMOSELECT	IQUANT	1	Thermo Select
FRAMEWORKVERSION	LABEL	7.10.3	Framework Version
INSTRUMENTVERSION	LABEL	4.91	Instrument Version
COMMVERSION	LABEL	5.10	Communications Version
CPUPLDVERSION	LABEL	6.00	CPU PLD Version
CTRLPLDVERSION	LABEL	7.10	CTRL PLD Version
PSTATPLDVERSION	LABEL	8.13	PSTAT PLD Version
ZCURVE	TABLE
	Pt	Time	Freq	Zreal	Zimag	Zsig	Zmod	Zphz	Idc	Vdc	IERange	Imod	Vmod	Temp
	#	s	Hz	ohm	ohm	V	ohm	°	A	V	#	A	V	°C
	0	4	100078.1	13.31911	-1.299199	1	13.38232	-5.571232	-0.0001687	-0.2371477	9	0.0007452	0.0099894	-327.67
	1	5	79453.13	13.28974	-0.5990996	1	13.30324	-2.581138	-0.0001122	-0.2380406	9	0.0008594	0.011444	-327.67
	2	7	63140.62	13.67906	-0.7644343	1	13.7004	-3.198564	-0.000148	-0.2381615	9	0.0008317	0.0114018	-327.67
	3	8	50203.12	13.49913	-0.434906	1	13.50613	-1.845279	-0.000161	-0.2370849	9	0.0005212	0.0070417	-327.67
	4	10	39890.62	13.78039	-1.005928	1	13.81706	-4.175019	-0.000143	-0.237816	9	0.000777	0.0107386	-327.67
	5	11	31640.63	13.62603	0.4659675	1	13.63399	1.958574	-0.0001694	-0.2387235	9	0.0007456	0.0101669	-327.67
	6	12	25171.88	13.31672	-0.412438	1	13.32311	-1.773965	-0.0001026	-0.2388036	9	0.0007617	0.0101487	-327.67
	7	13	20015.62	13.79229	-0.8920271	1	13.82111	-3.700494	-0.0001526	-0.2372063	9	0.0007446	0.0102922	-327.67
	8	15	15890.62	13.96393	-1.059918	1	14.0041	-4.340655	-0.000159	-0.2372222	9	0.0007264	0.010173	-327.67
	9	17	12609.38	14.54425	-0.4770249	1	14.55207	-1.878523	-0.0001695	-0.236837	9	0.0007246	0.0105453	-327.67
	10	18	10078.13	14.03654	-1.496822	1	14.11613	-6.086875	-0.000172	-0.2363912	9	0.0006924	0.0097736	-327.67
	11	19	8015.625	13.86158	-1.089829	1	13.90436	-4.495478	-0.0001622	-0.2375398	9	0.0006963	0.0096824	-327.67
	12	20	6328.125	14.18751	-1.425122	1	14.2589	-5.736065	-0.0001516	-0.2369617	9	0.0004785	0.0068235	-327.67
	13	22	5015.625	14.28786	-1.564387	1	14.37325	-6.24846	-0.0001567	-0.237188	9	0.0004664	0.0067036	-327.67
	14	24	3984.375	14.71587	-1.348803	1	14.77755	-5.23689	-0.0001602	-0.2369168	9	0.0006846	0.0101165	-327.67
	15	26	3170.956	14.1219	-2.149933	1	14.28461	-8.656304	-0.0001568	-0.2372694	9	0.0004918	0.0070246	-327.67
	16	28	2527.573	14.02435	-2.968863	1	14.33515	-11.95268	-0.0001489	-0.2381743	9	0.0006852	0.009823	-327.67
	17	30	1976.103	14.53378	-2.718869	1	14.7859	-10.59599	-0.0001569	-0.2372883	9	0.0004638	0.0068576	-327.67
	18	31	1577.524	15.44141	-3.103337	1	15.75017	-11.36363	-0.0001588	-0.2369907	9	0.0007133	0.0112342	-327.67
	19	33	1265.625	15.20143	-3.499744	1	15.59909	-12.96499	-0.0001563	-0.2380271	9	0.0005945	0.0092735	-327.67
	20	34	998.264	14.69387	-5.503103	1	15.69057	-20.53178	-0.0001557	-0.2370864	9	0.0004222	0.0066244	-327.67
	21	36	796.875	15.74175	-7.120389	1	17.27723	-24.33843	-0.0001536	-0.2366144	9	0.0005989	0.0103475	-327.67
	22	37	627.7902	15.53221	-8.721475	1	17.8133	-29.3146	-0.0001566	-0.2372316	9	0.0003611	0.0064322	-327.67
	23	40	505.5147	15.51263	-9.71109	1	18.30156	-32.04705	4.621303E-007	-0.2348661	9	0.0005075	0.0092736	-327.67
	24	41	397.9953	15.77175	-12.03926	1	19.84167	-37.35606	4.915441E-007	-0.2348741	9	0.0005135	0.0101801	-327.67
	25	43	315.5048	16.06636	-14.87706	1	21.89646	-42.79894	2.814986E-007	-0.2348676	9	0.0004602	0.0100736	-327.67
	26	44	252.4038	16.39564	-18.26922	1	24.54753	-48.09374	5.4962E-007	-0.2348685	9	0.0004085	0.0100247	-327.67
	27	46	198.6229	16.82159	-22.81527	1	28.34612	-53.59882	2.936374E-007	-0.2348798	9	0.0003532	0.0100115	-327.67
	28	47	158.3615	17.32303	-28.17944	1	33.07821	-58.4193	9.326868E-010	-0.2348825	8	0.000301	0.009956	-327.67
	29	49	125.558	17.95184	-35.02866	1	39.36084	-62.8653	2.047503E-008	-0.2348754	8	0.0002544	0.0100119	-327.67
	30	50	100.4464	18.69613	-43.20242	1	47.07434	-66.59914	3.248475E-008	-0.2348665	8	0.0002125	0.0100041	-327.67
	31	52	79.00281	19.71238	-54.15495	1	57.63103	-69.99851	1.600051E-008	-0.2348758	8	0.0001735	0.0099998	-327.67
	32	53	63.3446	20.92136	-66.66978	1	69.87534	-72.57785	3.531909E-009	-0.2348783	8	0.000143	0.0099907	-327.67
	33	55	50.22321	22.4236	-82.62058	1	85.60945	-74.81544	5.185143E-009	-0.2348768	8	0.0001165	0.0099753	-327.67
	34	56	38.42213	24.89019	-106.7358	1	109.5995	-76.87353	4.07307E-008	-0.2348766	8	9.051277E-005	0.0099201	-327.67
	35	58	31.25	27.30007	-129.6939	1	132.5361	-78.113	2.226201E-008	-0.234872	8	7.431144E-005	0.0098489	-327.67
	36	59	24.93351	30.49874	-160.3969	1	163.2707	-79.23399	2.20615E-008	-0.2348721	8	5.908734E-005	0.0096472	-327.67
	37	61	19.86229	34.7071	-198.8066	1	201.8134	-80.09726	-1.725642E-007	-0.2348975	8	5.358102E-005	0.0108134	-327.67
	38	62	15.625	40.25431	-248.5043	1	251.7435	-80.79879	-4.277985E-008	-0.2348876	8	3.971566E-005	0.0099982	-327.67
	39	64	12.40079	47.22056	-308.2405	1	311.8365	-81.29035	-5.906958E-008	-0.2348951	8	3.20767E-005	0.0100027	-327.67
	40	65	9.93114	55.97753	-379.083	1	383.1937	-81.60008	-1.647365E-008	-0.2348785	7	2.605171E-005	0.0099828	-327.67
	41	67	7.944915	67.14812	-466.1953	1	471.0063	-81.80381	-1.241176E-009	-0.2348814	7	2.123963E-005	0.010004	-327.67
	42	69	6.317385	81.95745	-577.2563	1	583.0453	-81.91929	-2.600601E-009	-0.2348796	7	1.715747E-005	0.0100036	-327.67
	43	71	5.008013	101.1476	-715.5994	1	722.7125	-81.95473	5.880594E-010	-0.2348795	7	1.383446E-005	0.0099983	-327.67
	44	74	3.945707	126.2076	-891.4358	1	900.3256	-81.94174	-2.134854E-009	-0.2348807	7	1.111044E-005	0.010003	-327.67
	45	76	3.158693	155.9293	-1093.268	1	1104.332	-81.88283	2.908045E-009	-0.2348816	7	9.05837E-006	0.0100034	-327.67
	46	79	2.504006	188.1673	-1350.922	1	1363.964	-82.0704	1.211887E-009	-0.2348709	7	7.166371E-006	0.0097191	-327.67
	47	83	1.998082	236.6451	-1663.015	1	1679.767	-81.90125	3.359684E-009	-0.2348774	7	6.079578E-006	0.010179	-327.67
	48	87	1.584686	301.1987	-2056.634	1	2078.572	-81.66814	4.407145E-009	-0.2348762	7	4.853694E-006	0.0100698	-327.67
	49	92	1.266892	381.9357	-2523.038	1	2551.782	-81.39196	6.747761E-009	-0.2348705	7	3.935505E-006	0.0100312	-327.67
	50	97	0.999041	493.9744	-3133.06	1	3171.762	-81.04021	5.848481E-009	-0.2348768	7	3.158785E-006	0.0100122	-327.67
	51	103	0.7923428	636.6833	-3864.414	1	3916.511	-80.64426	5.510023E-009	-0.2348825	6	2.550746E-006	0.0099859	-327.67
	52	109	0.6334459	818.071	-4728.162	1	4798.412	-80.18382	6.17594E-009	-0.2348817	6	2.080567E-006	0.0099809	-327.67
	53	117	0.5040323	1062.775	-5804.917	1	5901.402	-79.62508	6.702118E-009	-0.2348855	6	1.695458E-006	0.010004	-327.67
	54	127	0.400641	1389.374	-7124.077	1	7258.294	-78.96441	6.751515E-009	-0.2348886	6	1.377902E-006	0.0100002	-327.67
	55	138	0.316723	1839.447	-8772.136	1	8962.92	-78.15712	6.960813E-009	-0.2348863	6	1.116041E-006	0.0100024	-327.67
	56	152	0.2520161	2430.415	-10718.82	1	10990.9	-77.2246	7.161288E-009	-0.2348837	6	9.098911E-007	0.0100001	-327.67
	57	170	0.2003205	3237.878	-13076.79	1	13471.69	-76.09299	7.614539E-009	-0.2348843	6	7.424487E-007	0.0100018	-327.67
	58	191	0.1588983	4347.114	-15923.09	1	16505.82	-74.72997	8.141354E-009	-0.234889	6	6.058184E-007	0.0099994	-327.67
	59	217	0.1260081	5866.825	-19319.76	1	20190.91	-73.10806	6.407935E-009	-0.2348882	6	4.954488E-007	0.0100035	-327.67
	60	247	0.1001603	7895.065	-23244.53	1	24548.73	-71.23981	3.711494E-009	-0.2348843	6	4.073735E-007	0.0100004	-327.67
	61	283	0.0794492	10666.42	-27790.07	1	29766.77	-69.00213	1.414209E-010	-0.2348866	6	3.35945E-007	0.01	-327.67
	62	323	0.0631739	14374.18	-32805.78	1	35816.7	-66.33889	-1.599016E-009	-0.2348641	5	2.778082E-007	0.0099501	-327.67
	63	372	0.0501337	19233.86	-38289.36	1	42848.77	-63.32829	-2.993513E-009	-0.2348674	5	2.339883E-007	0.0100261	-327.67
	64	433	0.0398258	25478.96	-43912.56	1	50768.99	-59.87683	-2.776281E-009	-0.2348645	5	1.970054E-007	0.0100018	-327.67
	65	510	0.0316296	33221.3	-49170.72	1	59341.51	-55.95579	-4.301917E-009	-0.2348578	5	1.685885E-007	0.0100043	-327.67
	66	606	0.0251206	42186.1	-53992.1	1	68518.71	-51.99812	-6.292173E-009	-0.2348581	5	1.459846E-007	0.0100027	-327.67
	67	727	0.0199553	52201.33	-57997.52	1	78030.06	-48.01084	-6.467498E-009	-0.2348651	5	1.281629E-007	0.0100006	-327.67
	68	879	0.0158522	62755.55	-59929.67	1	86774.55	-43.68051	-8.326451E-009	-0.2348609	5	1.152596E-007	0.0100016	-327.67
	69	1070	0.0125907	72634.35	-60822.35	1	94737.05	-39.94204	-1.322072E-008	-0.2348564	5	1.055753E-007	0.0100019	-327.67
	70	1310	0.0100011	83249.42	-61958.32	1	103775.2	-36.65844	-1.879515E-008	-0.2348538	5	9.638775E-008	0.0100027	-327.67
