EXPLAIN
TAG	EISPOT
TITLE	LABEL	Potentiostatic EIS	Test Identifier
DATE	LABEL	2024/12/20	Date
TIME	LABEL	20:03:09	Time
NOTES	NOTES	1	Notes...
	
PSTAT	PSTAT	REF620-49045	Potentiostat
VDC	POTEN	0.00000E+000	T	DC Voltage (V)
FREQINIT	QUANT	1.00000E+005	Initial Freq. (Hz)
FREQFINAL	QUANT	1.00000E-002	Final Freq. (Hz)
PTSPERDEC	QUANT	1.00000E+001	Points/decade
VAC	QUANT	1.00000E+001	AC Voltage (mV rms)
AREA	QUANT	1.00000E+000	Sample Area (cm^2)
SPEED	SELECTOR	1	Optimize for:
DRIFTCOR	SELECTOR	0	Drift Correction
THD	SELECTOR	0	THD
ZGUESS	QUANT	1.00000E+002	Estimated Z (ohms)
EOC	QUANT	-0.1570143	Open Circuit (V)
SEQUENCER	TOGGLE	TRUE	Run as Sequence
PSTATMODEL	IQUANT	87	Pstat Model
PSTATSECTION	LABEL	REF620-49045	Pstat Section
PSTATSERIALNO	LABEL	49045	Pstat Serial Number
CTRLMODE	IQUANT	1	Control Mode
ELECTROMETER	IQUANT	0	RE=0 or CS=1
IESTAB	IQUANT	0	I/E Stability
CASPEED	IQUANT	3	Control Amp Speed
CONVENTION	IQUANT	1	Current Convention
ICHRANGE	IQUANT	2	Ich Range
ICHRANGEMODE	TOGGLE	F	Ich Auto Range
ICHOFFSETENABLE	TOGGLE	T	Ich Offset Enable
ICHOFFSET	QUANT	0	Ich Offset (V)
ICHFILTER	IQUANT	3	Ich Filter
VCHRANGE	IQUANT	2	Vch Range
VCHRANGEMODE	TOGGLE	F	Vch Auto Range
VCHOFFSETENABLE	TOGGLE	T	Vch Offset Enable
VCHOFFSET	QUANT	0	Vch Offset (V)
VCHFILTER	IQUANT	3	Vch Filter
ACHRANGE	IQUANT	2	Ach Range
ACHOFFSETENABLE	TOGGLE	F	Ach Offset Enable
ACHOFFSET	QUANT	0	Ach Offset (V)
ACHFILTER	IQUANT	1	Ach Filter
IERANGELOWERLIMIT	IQUANT	1	I/E Range Lower Limit
IERANGEMODE	TOGGLE	F	I/E AutoRange
IERANGE	IQUANT	10	I/E Range
POSFEEDENABLE	TOGGLE	F	Positive Feedback IR Comp
POSFEEDRESISTANCE	QUANT	0	Positive Feedback Resistance (ohm)
ACHSELECT	IQUANT	4	Ach Select
SENSECABLEID	IQUANT	7	Sense Cable ID
PWRCABLEID	IQUANT	7	Power Cable ID
DCCALDATE	LABEL	4/1/2024	DC Calibration Date
ACCALDATE	LABEL	10/11/2023	AC Calibration Date
THERMOSELECT	IQUANT	1	Thermo Select
FRAMEWORKVERSION	LABEL	7.10.3	Framework Version
INSTRUMENTVERSION	LABEL	4.91	Instrument Version
COMMVERSION	LABEL	5.10	Communications Version
CPUPLDVERSION	LABEL	6.00	CPU PLD Version
CTRLPLDVERSION	LABEL	7.10	CTRL PLD Version
PSTATPLDVERSION	LABEL	8.13	PSTAT PLD Version
ZCURVE	TABLE
	Pt	Time	Freq	Zreal	Zimag	Zsig	Zmod	Zphz	Idc	Vdc	IERange	Imod	Vmod	Temp
	#	s	Hz	ohm	ohm	V	ohm	°	A	V	#	A	V	°C
	0	3	100078.1	11.68821	-1.509053	1	11.78522	-7.356705	-8.7357E-006	-0.1565796	9	0.0008522	0.0100118	-327.67
	1	5	79453.13	11.73991	-1.810743	1	11.87873	-8.768105	-8.884801E-006	-0.1565659	9	0.0010092	0.0119629	-327.67
	2	6	63140.62	11.80812	-2.189456	1	12.00939	-10.50445	-8.776928E-006	-0.1565599	9	0.0009588	0.0114983	-327.67
	3	8	50203.12	11.89079	-2.654644	1	12.18352	-12.58503	-8.701107E-006	-0.1565662	9	0.0009143	0.0111293	-327.67
	4	9	39890.62	11.98649	-3.228625	1	12.4137	-15.07514	-8.859271E-006	-0.1565696	9	0.0008682	0.0107716	-327.67
	5	10	31640.63	12.1099	-3.945296	1	12.73636	-18.04515	-8.929112E-006	-0.1565727	9	0.000822	0.0104656	-327.67
	6	12	25171.88	12.24895	-4.825683	1	13.16525	-21.50281	-8.730824E-006	-0.1565739	9	0.0007811	0.0102814	-327.67
	7	13	20015.62	12.42657	-5.905897	1	13.7586	-25.42005	-8.727003E-006	-0.1565637	9	0.000737	0.0101393	-327.67
	8	15	15890.62	12.62244	-7.263286	1	14.56301	-29.91726	-8.914671E-006	-0.1565557	9	0.0006885	0.0100261	-327.67
	9	16	12609.38	12.8886	-8.934825	1	15.6827	-34.73105	-8.711678E-006	-0.156558	9	0.0006361	0.0099746	-327.67
	10	18	10078.13	13.18336	-10.941	1	17.13203	-39.68962	-8.692194E-006	-0.1565679	9	0.0005796	0.0099301	-327.67
	11	19	8015.625	13.57477	-13.45295	1	19.11168	-44.74175	-8.841938E-006	-0.1565682	9	0.0005191	0.0099212	-327.67
	12	21	6328.125	14.07703	-16.67789	1	21.82464	-49.83385	-8.909681E-006	-0.1565744	9	0.0004543	0.0099141	-327.67
	13	22	5015.625	14.70744	-20.58799	1	25.30167	-54.45913	-8.831211E-006	-0.1565725	9	0.0003923	0.0099254	-327.67
	14	24	3984.375	15.50335	-25.36766	1	29.72998	-58.56897	-8.347328E-006	-0.156568	9	0.0003345	0.0099439	-327.67
	15	25	3170.956	16.52779	-31.23153	1	35.3352	-62.11212	-1.584788E-006	-0.1564795	8	0.0002949	0.0104205	-327.67
	16	27	2527.573	17.81045	-38.28663	1	42.22651	-65.05275	-1.611797E-006	-0.1564684	8	0.0002326	0.0098208	-327.67
	17	28	1976.103	19.63227	-47.76747	1	51.64453	-67.6575	-1.552113E-006	-0.1564796	8	0.0001911	0.0098671	-327.67
	18	30	1577.524	21.81544	-58.46113	1	62.39886	-69.53637	-1.658123E-006	-0.1564752	8	0.000159	0.009921	-327.67
	19	31	1265.625	24.58802	-71.16084	1	75.28901	-70.93857	-1.665862E-006	-0.1564737	8	0.0001322	0.0099525	-327.67
	20	33	998.264	28.34631	-87.67284	1	92.14142	-72.08298	-1.595195E-006	-0.1564871	8	0.000108	0.0099543	-327.67
	21	34	796.875	33.23681	-106.8715	1	111.9205	-72.72442	-1.614727E-006	-0.1564762	8	8.91384E-005	0.0099764	-327.67
	22	36	627.7902	39.57204	-131.6985	1	137.5153	-73.27582	-1.519515E-006	-0.156471	8	7.263338E-005	0.0099882	-327.67
	23	37	505.5147	47.27786	-158.485	1	165.3865	-73.38956	1.423552E-008	-0.1564889	8	5.860889E-005	0.0097115	-327.67
	24	39	397.9953	58.06126	-194.0203	1	202.5216	-73.34	1.225635E-008	-0.1565084	8	5.012537E-005	0.0101628	-327.67
	25	40	315.5048	71.43306	-235.3471	1	245.949	-73.11579	1.130903E-008	-0.1564981	8	4.088396E-005	0.0100621	-327.67
	26	42	252.4038	87.46236	-282.2852	1	295.5243	-72.7851	6.230192E-008	-0.1565023	8	3.390769E-005	0.0100247	-327.67
	27	43	198.6229	108.7459	-342.1167	1	358.984	-72.36652	-1.478204E-009	-0.1564848	7	2.785719E-005	0.0100028	-327.67
	28	45	158.3615	132.4413	-408.5604	1	429.4907	-72.03909	-6.604111E-009	-0.1565035	7	2.32666E-005	0.0099944	-327.67
	29	46	125.558	160.456	-488.979	1	514.6325	-71.83301	-3.571415E-009	-0.1565162	7	1.941947E-005	0.0099949	-327.67
	30	48	100.4464	190.7422	-580.7163	1	611.2397	-71.8167	-5.743999E-009	-0.1565077	7	1.635435E-005	0.0099971	-327.67
	31	49	79.00281	226.6999	-699.5842	1	735.3985	-72.04511	2.345175E-009	-0.1565103	7	1.358419E-005	0.0099902	-327.67
	32	51	63.3446	262.7525	-832.3983	1	872.8835	-72.48132	1.345508E-008	-0.1565125	7	1.14435E-005	0.0099891	-327.67
	33	52	50.22321	305.3883	-1003.129	1	1048.584	-73.06787	7.00193E-009	-0.1565071	7	9.509259E-006	0.0099714	-327.67
	34	54	38.42213	359.4387	-1250.497	1	1301.13	-73.96341	-3.952842E-009	-0.1565076	7	7.618855E-006	0.0099132	-327.67
	35	55	31.25	407.5767	-1487.955	1	1542.766	-74.68143	-2.429523E-009	-0.1565069	7	6.38121E-006	0.0098448	-327.67
	36	57	24.93351	469.6672	-1804.024	1	1864.159	-75.40731	5.348717E-009	-0.156493	7	5.165927E-006	0.0096301	-327.67
	37	58	19.86229	518.5168	-2149.077	1	2210.744	-76.43526	-1.114994E-008	-0.1565202	7	4.902095E-006	0.0108373	-327.67
	38	59	15.625	620.9199	-2673.897	1	2745.044	-76.92674	-8.82099E-009	-0.1565192	7	3.645446E-006	0.0100069	-327.67
	39	61	12.40079	747.1248	-3307.644	1	3390.974	-77.27173	-5.91815E-009	-0.1565173	6	2.944763E-006	0.0099856	-327.67
	40	62	9.93114	884.0492	-4026.766	1	4122.667	-77.61755	-3.448358E-009	-0.1565096	6	2.424217E-006	0.0099942	-327.67
	41	64	7.944915	1054.693	-4906.724	1	5018.796	-77.86894	-3.176623E-009	-0.1565162	6	1.995789E-006	0.0100165	-327.67
	42	66	6.317385	1276.167	-6013.524	1	6147.445	-78.01866	-1.982807E-009	-0.1565187	6	1.626216E-006	0.0099971	-327.67
	43	68	5.008013	1558.761	-7383.585	1	7546.328	-78.07923	-1.605425E-009	-0.1565125	6	1.325433E-006	0.0100022	-327.67
	44	70	3.945707	1928.434	-9107.076	1	9309.012	-78.04416	-1.140189E-009	-0.1565178	6	1.074093E-006	0.0099987	-327.67
	45	73	3.158693	2366.408	-11071.4	1	11321.47	-77.9351	-9.584138E-010	-0.1565185	6	8.836109E-007	0.0100038	-327.67
	46	75	2.504006	2957.578	-13575.85	1	13894.28	-77.70982	-6.717049E-010	-0.1565135	6	6.986675E-007	0.0097487	-327.67
	47	79	1.998082	3673.246	-16514.51	1	16918.09	-77.4601	-5.952963E-010	-0.1565219	6	5.990391E-007	0.0101602	-327.67
	48	83	1.584686	4605.655	-20171.72	1	20690.83	-77.13857	-3.696812E-010	-0.1565149	6	4.857602E-007	0.0100659	-327.67
	49	88	1.266892	5741.683	-24437.21	1	25102.67	-76.77781	-5.322764E-011	-0.156519	6	3.989291E-007	0.0100234	-327.67
	50	93	0.999041	7265.611	-29910.11	1	30779.92	-76.34645	3.868119E-010	-0.1565224	6	3.250156E-007	0.0100095	-327.67
	51	99	0.7923428	9155.951	-36379.13	1	37513.63	-75.87312	2.888978E-011	-0.1565109	5	2.65816E-007	0.0099751	-327.67
	52	105	0.6334459	11440.56	-43870.09	1	45337.3	-75.38378	1.588583E-010	-0.1565132	5	2.209155E-007	0.0100179	-327.67
	53	113	0.5040323	14356.15	-53035.48	1	54944.17	-74.85361	2.206971E-010	-0.1565146	5	1.820836E-007	0.0100058	-327.67
	54	123	0.400641	18035.01	-64075.51	1	66565.25	-74.27995	2.607314E-010	-0.1565129	5	1.502356E-007	0.0100013	-327.67
	55	134	0.316723	22762.86	-77631.38	1	80899.81	-73.65795	3.00033E-010	-0.1565146	5	1.236569E-007	0.0100043	-327.67
	56	148	0.2520161	28562.3	-93424.09	1	97692.7	-73.00018	3.076885E-010	-0.1565146	5	1.023653E-007	0.0100007	-327.67
	57	166	0.2003205	35908.12	-112228.7	1	117833.2	-72.25768	3.585695E-010	-0.156508	5	8.488762E-008	0.0100028	-327.67
	58	187	0.1588983	45329.2	-134937.5	1	142347.7	-71.43139	3.431022E-010	-0.1565104	5	7.026402E-008	0.0100021	-327.67
	59	213	0.1260081	57358.43	-161952.8	1	171810.1	-70.49751	2.671746E-010	-0.1565069	5	5.821751E-008	0.0100024	-327.67
	60	243	0.1001603	72636.24	-193432.9	1	206621.1	-69.41827	1.287747E-010	-0.1565081	5	4.839821E-008	0.0100001	-327.67
	61	279	0.0794492	92512.78	-230588.7	1	248454.7	-68.13921	9.358947E-011	-0.1565083	5	4.025417E-008	0.0100014	-327.67
	62	319	0.0631739	118224.7	-272820.4	1	297334.9	-66.57085	2.200569E-010	-0.1565146	5	3.363758E-008	0.0100016	-327.67
	63	368	0.0501337	151647.5	-320887.1	1	354916.2	-64.70513	2.505858E-010	-0.1565156	4	2.80173E-008	0.0099438	-327.67
	64	429	0.0398258	193845	-372835.5	1	420216.9	-62.52913	2.785628E-010	-0.1565127	4	2.380705E-008	0.0100041	-327.67
	65	506	0.0316296	247775.8	-429924.3	1	496213.4	-60.04411	2.012958E-010	-0.1565131	4	2.016417E-008	0.0100057	-327.67
	66	602	0.0251206	314735	-488573.3	1	581172.9	-57.21069	1.31034E-010	-0.1565157	4	1.721262E-008	0.0100035	-327.67
	67	723	0.0199553	395706.3	-545899.8	1	674232.9	-54.06277	2.579684E-011	-0.1565133	4	1.483509E-008	0.0100023	-327.67
	68	875	0.0158522	491203.2	-596247.1	1	772522.6	-50.51745	-1.147109E-011	-0.1565148	4	1.295036E-008	0.0100044	-327.67
	69	1066	0.0125907	597935.7	-638491.8	1	874756.5	-46.87869	-8.016109E-011	-0.1565195	4	1.143215E-008	0.0100004	-327.67
	70	1306	0.0100011	723453.8	-637683.1	1	964378	-41.39433	5.87171E-010	-0.1565236	4	1.037066E-008	0.0100012	-327.67
