EXPLAIN
TAG	EISPOT
TITLE	LABEL	Potentiostatic EIS	Test Identifier
DATE	LABEL	2024/12/19	Date
TIME	LABEL	16:26:50	Time
NOTES	NOTES	1	Notes...
	
PSTAT	PSTAT	REF620-49045	Potentiostat
VDC	POTEN	0.00000E+000	T	DC Voltage (V)
FREQINIT	QUANT	1.00000E+005	Initial Freq. (Hz)
FREQFINAL	QUANT	1.00000E-002	Final Freq. (Hz)
PTSPERDEC	QUANT	1.00000E+001	Points/decade
VAC	QUANT	1.00000E+001	AC Voltage (mV rms)
AREA	QUANT	1.00000E+000	Sample Area (cm^2)
SPEED	SELECTOR	1	Optimize for:
DRIFTCOR	SELECTOR	0	Drift Correction
THD	SELECTOR	0	THD
ZGUESS	QUANT	1.00000E+002	Estimated Z (ohms)
EOC	QUANT	2.686331	Open Circuit (V)
SEQUENCER	TOGGLE	TRUE	Run as Sequence
PSTATMODEL	IQUANT	87	Pstat Model
PSTATSECTION	LABEL	REF620-49045	Pstat Section
PSTATSERIALNO	LABEL	49045	Pstat Serial Number
CTRLMODE	IQUANT	1	Control Mode
ELECTROMETER	IQUANT	0	RE=0 or CS=1
IESTAB	IQUANT	0	I/E Stability
CASPEED	IQUANT	3	Control Amp Speed
CONVENTION	IQUANT	1	Current Convention
ICHRANGE	IQUANT	2	Ich Range
ICHRANGEMODE	TOGGLE	F	Ich Auto Range
ICHOFFSETENABLE	TOGGLE	T	Ich Offset Enable
ICHOFFSET	QUANT	0	Ich Offset (V)
ICHFILTER	IQUANT	3	Ich Filter
VCHRANGE	IQUANT	2	Vch Range
VCHRANGEMODE	TOGGLE	F	Vch Auto Range
VCHOFFSETENABLE	TOGGLE	T	Vch Offset Enable
VCHOFFSET	QUANT	0	Vch Offset (V)
VCHFILTER	IQUANT	3	Vch Filter
ACHRANGE	IQUANT	2	Ach Range
ACHOFFSETENABLE	TOGGLE	F	Ach Offset Enable
ACHOFFSET	QUANT	0	Ach Offset (V)
ACHFILTER	IQUANT	1	Ach Filter
IERANGELOWERLIMIT	IQUANT	1	I/E Range Lower Limit
IERANGEMODE	TOGGLE	F	I/E AutoRange
IERANGE	IQUANT	10	I/E Range
POSFEEDENABLE	TOGGLE	F	Positive Feedback IR Comp
POSFEEDRESISTANCE	QUANT	0	Positive Feedback Resistance (ohm)
ACHSELECT	IQUANT	4	Ach Select
SENSECABLEID	IQUANT	7	Sense Cable ID
PWRCABLEID	IQUANT	7	Power Cable ID
DCCALDATE	LABEL	4/1/2024	DC Calibration Date
ACCALDATE	LABEL	10/11/2023	AC Calibration Date
THERMOSELECT	IQUANT	1	Thermo Select
FRAMEWORKVERSION	LABEL	7.10.3	Framework Version
INSTRUMENTVERSION	LABEL	4.91	Instrument Version
COMMVERSION	LABEL	5.10	Communications Version
CPUPLDVERSION	LABEL	6.00	CPU PLD Version
CTRLPLDVERSION	LABEL	7.10	CTRL PLD Version
PSTATPLDVERSION	LABEL	8.13	PSTAT PLD Version
ZCURVE	TABLE
	Pt	Time	Freq	Zreal	Zimag	Zsig	Zmod	Zphz	Idc	Vdc	IERange	Imod	Vmod	Temp
	#	s	Hz	ohm	ohm	V	ohm	°	A	V	#	A	V	°C
	0	3	100078.1	6789.443	-150859.3	1	151012	-87.42313	4.109285E-008	2.686826	7	6.660945E-008	0.0100347	-327.67
	1	6	79453.13	9814.91	-189557.5	1	189811.4	-87.03599	4.075656E-008	2.686823	7	5.445968E-008	0.0103207	-327.67
	2	9	63140.62	13167.92	-236939.6	1	237305.3	-86.81906	4.113468E-008	2.686824	7	4.283459E-008	0.0101547	-327.67
	3	12	50203.12	-2019.447	-292252.7	1	292259.7	-90.3959	1.343148E-007	2.685655	6	3.373792E-008	0.0101885	-327.67
	4	15	39890.62	8580.385	-354067	1	354170.9	-88.61178	1.376482E-007	2.685637	6	2.762025E-008	0.0099945	-327.67
	5	17	31640.63	11506.4	-449729.7	1	449876.8	-88.5344	1.359808E-007	2.685658	6	2.185134E-008	0.0099701	-327.67
	6	20	25171.88	42941.32	-558358.3	1	560007.1	-85.60224	1.364711E-007	2.685661	6	1.770477E-008	0.0100085	-327.67
	7	22	20015.62	43630.17	-741400.7	1	742683.4	-86.63213	1.362812E-007	2.685654	6	1.337926E-008	0.0099996	-327.67
	8	23	15890.62	70175.91	-862195.5	1	865046.7	-85.34683	1.349768E-007	2.685681	6	1.151205E-008	0.0100011	-327.67
	9	25	12609.38	-420042.7	-899051.6	1	992335	-115.0423	1.359525E-007	2.68566	6	1.010975E-008	0.0100612	-327.67
	10	27	10078.13	-35440.02	-934015.1	1	934687.3	-92.17297	1.339942E-007	2.685625	6	1.060994E-008	0.0099364	-327.67
	11	29	8015.625	376015.9	-1526372	1	1572005	-76.16096	1.359072E-007	2.685616	6	6.339719E-009	0.0099791	-327.67
	12	31	6328.125	783045.4	-1106977	1	1355935	-54.72546	1.354768E-007	2.685647	6	7.346258E-009	0.0099695	-327.67
	13	32	5015.625	-599816.6	-2287622	1	2364952	-104.6923	1.354482E-007	2.685646	6	4.266047E-009	0.0100945	-327.67
	14	34	3984.375	-141852.9	-3384717	1	3387688	-92.39985	1.36591E-007	2.685611	6	2.936825E-009	0.0099526	-327.67
	15	36	3170.956	-1236305	-2432201	1	2728379	-116.9445	1.35645E-007	2.68566	6	3.670789E-009	0.0100176	-327.67
	16	38	2527.573	-4600543	-6895430	1	8289267	-123.7107	1.372973E-007	2.685614	6	1.20542E-009	0.0099935	-327.67
	17	40	1976.103	4682299	-1957026	1	5074827	-22.68311	1.38345E-007	2.685647	6	1.970701E-009	0.0100019	-327.67
	18	42	1577.524	-2977773	-9402624	1	9.862883E+006	-107.5728	1.49052E-008	2.684448	5	1.013335E-009	0.0100331	-327.67
	19	44	1265.625	-1425267	-7768392	1	7898056	-100.3964	1.411325E-008	2.684421	5	1.260631E-009	0.0099847	-327.67
	20	46	998.264	-3115043	-8596060	1	9143070	-109.9195	1.505297E-008	2.684477	5	1.094814E-009	0.0100307	-327.67
	21	48	796.875	-6232321	-7393386	1	9.669746E+006	-130.1295	1.534437E-008	2.684448	5	1.036351E-009	0.0100371	-327.67
	22	50	627.7902	-1306634	-1.673871E+007	1	1.678963E+007	-94.46349	1.452649E-008	2.684489	5	5.883283E-010	0.0098897	-327.67
	23	51	505.5147	1643805	-2.459041E+007	1	2.464529E+007	-86.17561	1.646584E-010	2.68674	5	3.93774E-010	0.0097321	-327.67
	24	53	397.9953	2537252	-2.904003E+007	1	2.915066E+007	-85.0067	7.490623E-011	2.686735	5	3.484141E-010	0.0101748	-327.67
	25	54	315.5048	-4250972	-4.6296E+007	1	4.649075E+007	-95.2463	1.824772E-010	2.68674	5	2.162399E-010	0.0100648	-327.67
	26	56	252.4038	-4.692341E+007	-2.013224E+007	1	5.10599E+007	-156.7785	1.452264E-010	2.686743	5	1.961188E-010	0.0100214	-327.67
	27	58	198.6229	5277404	-9.608265E+007	1	9.622747E+007	-86.85615	-2.208526E-010	2.686736	4	1.033002E-010	0.0100118	-327.67
	28	59	158.3615	-4013488	-5.010006E+007	1	5.026057E+007	-94.58015	1.270704E-011	2.686736	4	1.980685E-010	0.0100016	-327.67
	29	61	125.558	5.936981E+007	-2.461579E+007	1	6.427061E+007	-22.51978	7.237631E-011	2.686741	4	1.550929E-010	0.0099983	-327.67
	30	63	100.4464	-4576328	-1.13998E+008	1	1.140898E+008	-92.29884	-3.509748E-011	2.686741	4	8.743291E-011	0.0099957	-327.67
	31	65	79.00281	1.604445E+008	-6.302798E+007	1	1.723803E+008	-21.44656	6.83124E-011	2.686732	4	5.788045E-011	0.0099911	-327.67
	32	67	63.3446	2.20202E+007	4.294302E+007	1	4.825963E+007	62.85228	2.811053E-011	2.686725	4	2.067718E-010	0.0099883	-327.67
	33	69	50.22321	907365.1	1731179	1	1954557	62.33957	-2.801693E-011	2.686723	4	5.088547E-009	0.0099526	-327.67
	34	71	38.42213	-3114929	1.366883E+007	1	1.401926E+007	102.8376	-2.083685E-010	2.686725	4	7.076761E-010	0.0099256	-327.67
	35	72	31.25	-5.873142E+007	-9.678453E+006	1	5.952354E+007	-170.6422	4.582586E-011	2.686727	4	1.653385E-010	0.0098449	-327.67
	36	74	24.93351	6.016132E+008	-3.712386E+008	1	7.069347E+008	-31.67757	6.794437E-012	2.686729	4	1.361821E-011	0.0096295	-327.67
	37	76	19.86229	-3.873486E+008	7.928358E+007	1	3.953794E+008	168.4323	-1.159247E-011	2.686723	4	2.745194E-011	0.0108558	-327.67
	38	78	15.625	-7445442	2.394243E+007	1	2.507339E+007	107.2743	-2.523191E-010	2.686709	4	3.985685E-010	0.0099946	-327.67
	39	80	12.40079	-2362559	1.20894E+008	1	1.209171E+008	91.11955	1.639936E-011	2.686712	5	8.274902E-011	0.0100058	-327.67
	40	82	9.93114	-2.294938E+008	4.075291E+008	1	4.677043E+008	119.3854	-1.585269E-011	2.686707	4	2.13917E-011	0.0100055	-327.67
	41	85	7.944915	3.366971E+008	-4.284239E+008	1	5.448963E+008	-51.8363	7.842903E-012	2.686711	4	1.835859E-011	0.0100039	-327.67
	42	87	6.317385	1.007482E+009	-2.412466E+008	1	1.035963E+009	-13.46621	-1.11983E-012	2.686713	4	9.64862E-012	0.0099958	-327.67
	43	91	5.008013	-5.080045E+009	7.184868E+008	1	5.130602E+009	171.9499	-2.012983E-012	2.686715	4	1.94821E-012	0.0099956	-327.67
	44	95	3.945707	-6.109384E+008	7.462497E+007	1	6.154792E+008	173.0359	1.266398E-011	2.686718	4	1.625615E-011	0.0100054	-327.67
	45	101	3.158693	7.498752E+009	7.476348E+009	1	1.058901E+010	44.91428	-1.378523E-012	2.686717	4	9.445473E-013	0.0100019	-327.67
	46	107	2.504006	-7.314012E+008	-3.978632E+009	1	4.045302E+009	-100.4165	2.314679E-012	2.686907	3	2.396059E-012	0.0097461	-327.67
	47	113	1.998082	-4.119668E+009	-1.471729E+010	1	1.528301E+010	-105.638	1.278727E-011	2.689284	2	6.526759E-013	0.010161	-327.67
	48	120	1.584686	-9.932511E+009	2.492288E+009	1	1.024042E+010	165.914	1.186564E-011	2.689281	2	9.694186E-013	0.0100632	-327.67
	49	128	1.266892	7.728089E+009	-1.137924E+009	1	7.811417E+009	-8.376336	1.223875E-011	2.689278	2	1.27011E-012	0.010023	-327.67
	50	137	0.999041	-2.037925E+009	2.638745E+009	1	3.334083E+009	127.6792	1.801524E-011	2.68927	2	2.9816E-012	0.0100153	-327.67
	51	148	0.7923428	9.978676E+009	-6.295849E+009	1	1.17988E+010	-32.24907	1.214355E-011	2.689282	2	8.424468E-013	0.0099934	-327.67
	52	158	0.6334459	5.942523E+009	-4.871541E+009	1	7.684107E+009	-39.34409	1.450622E-011	2.689273	2	1.29705E-012	0.0100048	-327.67
	53	171	0.5040323	1.689823E+009	-7.004868E+010	1	7.006906E+010	-88.61809	1.233797E-011	2.689276	2	1.423519E-013	0.0100007	-327.67
	54	187	0.400641	-4.079483E+008	-1.494335E+010	1	1.494892E+010	-91.56377	1.297479E-011	2.689276	2	6.677589E-013	0.0099998	-327.67
	55	218	0.316723	-1.18015E+011	-5.062444E+010	1	1.284148E+011	-156.7823	1.210513E-011	2.689272	2	7.778879E-014	0.0100007	-327.67
	56	242	0.2520161	-7.616703E+010	1.333816E+011	1	1.535971E+011	119.7284	1.193083E-011	2.689283	2	6.506082E-014	0.0100006	-327.67
EXPERIMENTABORTED	TOGGLE	T	Experiment Aborted
FRACURVE	TABLE	56
	Pt	T	V	I	OlCtrl	Overload
	#	S	V	A	bits	bits
	0	3.90000E-002	2.71418E+000	1.08615E-012	......	....ih.....
	1	7.80000E-002	2.71448E+000	1.87505E-012	......	....ih.....
	2	1.17000E-001	2.71505E+000	1.90040E-012	......	....ih.....
	3	1.56000E-001	2.71575E+000	1.81298E-012	......	....ih.....
	4	1.95000E-001	2.71646E+000	1.76578E-012	......	....ih.....
	5	2.34000E-001	2.71716E+000	1.82174E-012	...v..	....ih.....
	6	2.73000E-001	2.71785E+000	1.88053E-012	...v..	....ih.....
	7	3.12000E-001	2.71852E+000	1.91662E-012	...v..	....ih.....
	8	3.51000E-001	2.71911E+000	1.91387E-012	...v..	....ih...v.
	9	3.90000E-001	2.71920E+000	1.89988E-012	...v..	....ih...v.
	10	4.29000E-001	2.71920E+000	1.88596E-012	...v..	....ih...v.
	11	4.68000E-001	2.71920E+000	1.86400E-012	...v..	....ih...v.
	12	5.07000E-001	2.71920E+000	1.84213E-012	...v..	....ih...v.
	13	5.46000E-001	2.71920E+000	1.85098E-012	...v..	....ih...v.
	14	5.85000E-001	2.71920E+000	1.87216E-012	...v..	....ih...v.
	15	6.24000E-001	2.71920E+000	1.89632E-012	...v..	....ih...v.
	16	6.63000E-001	2.71920E+000	1.92056E-012	...v..	....ih...v.
	17	7.02000E-001	2.71920E+000	1.93290E-012	...v..	....ih...v.
	18	7.41000E-001	2.71920E+000	1.95941E-012	...v..	....ih...v.
	19	7.80000E-001	2.71920E+000	1.96092E-012	...v..	....ih...v.
	20	8.19000E-001	2.71920E+000	1.94888E-012	...v..	....ih...v.
	21	8.58000E-001	2.71920E+000	1.95058E-012	...v..	....ih...v.
	22	8.97000E-001	2.71920E+000	1.97662E-012	...v..	....ih...v.
	23	9.36000E-001	2.71920E+000	1.98324E-012	...v..	....ih...v.
	24	9.75000E-001	2.71920E+000	1.99700E-012	...v..	....ih...v.
	25	1.01400E+000	2.71920E+000	1.98609E-012	...v..	....ih...v.
	26	1.05300E+000	2.71920E+000	1.95222E-012	...v..	....ih...v.
	27	1.09200E+000	2.71920E+000	1.91669E-012	...v..	....ih...v.
	28	1.13100E+000	2.71920E+000	1.90089E-012	...v..	....ih...v.
	29	1.17000E+000	2.71920E+000	1.90049E-012	...v..	....ih...v.
	30	1.20900E+000	2.71920E+000	1.91016E-012	...v..	....ih...v.
	31	1.24800E+000	2.71920E+000	1.91553E-012	...v..	....ih...v.
	32	1.28700E+000	2.71920E+000	1.91624E-012	...v..	....ih...v.
	33	1.32600E+000	2.71920E+000	1.92347E-012	...v..	....ih...v.
	34	1.36500E+000	2.71920E+000	1.92584E-012	...v..	....ih...v.
	35	1.40400E+000	2.71920E+000	1.91550E-012	...v..	....ih...v.
	36	1.44300E+000	2.71920E+000	1.91994E-012	...v..	....ih...v.
	37	1.48200E+000	2.71920E+000	1.89362E-012	...v..	....ih...v.
	38	1.52100E+000	2.71920E+000	1.79772E-012	...v..	....ih...v.
	39	1.56000E+000	2.71920E+000	1.73353E-012	...v..	....ih...v.
	40	1.59900E+000	2.71920E+000	1.78730E-012	...v..	....ih...v.
	41	1.63800E+000	2.71920E+000	1.88983E-012	...v..	....ih...v.
	42	1.67700E+000	2.71920E+000	1.95357E-012	...v..	....ih...v.
	43	1.71600E+000	2.71920E+000	1.98256E-012	...v..	....ih...v.
	44	1.75500E+000	2.71920E+000	1.99180E-012	...v..	....ih...v.
	45	1.79400E+000	2.71920E+000	1.98712E-012	...v..	....ih...v.
	46	1.83300E+000	2.71920E+000	1.97248E-012	...v..	....ih...v.
	47	1.87200E+000	2.71920E+000	2.00523E-012	...v..	....ih...v.
	48	1.91100E+000	2.71920E+000	2.06543E-012	...v..	....ih...v.
	49	1.95000E+000	2.71920E+000	2.10016E-012	...v..	....ih...v.
	50	1.98900E+000	2.71920E+000	2.07848E-012	...v..	....ih...v.
	51	2.02800E+000	2.71920E+000	2.00753E-012	...v..	....ih...v.
	52	2.06700E+000	2.71920E+000	1.95489E-012	...v..	....ih...v.
	53	2.10600E+000	2.71920E+000	1.92115E-012	...v..	....ih...v.
	54	2.14500E+000	2.71920E+000	1.91971E-012	...v..	....ih...v.
	55	2.18400E+000	2.71920E+000	1.90698E-012	...v..	....ih...v.
