EXPLAIN
TAG	EISPOT
TITLE	LABEL	Potentiostatic EIS	Test Identifier
DATE	LABEL	2024/12/19	Date
TIME	LABEL	16:04:28	Time
NOTES	NOTES	1	Notes...
	
PSTAT	PSTAT	REF620-49029	Potentiostat
VDC	POTEN	0.00000E+000	T	DC Voltage (V)
FREQINIT	QUANT	1.00000E+005	Initial Freq. (Hz)
FREQFINAL	QUANT	1.00000E-002	Final Freq. (Hz)
PTSPERDEC	QUANT	1.00000E+001	Points/decade
VAC	QUANT	1.00000E+001	AC Voltage (mV rms)
AREA	QUANT	1.00000E+000	Sample Area (cm^2)
SPEED	SELECTOR	1	Optimize for:
DRIFTCOR	SELECTOR	0	Drift Correction
THD	SELECTOR	0	THD
ZGUESS	QUANT	1.00000E+002	Estimated Z (ohms)
EOC	QUANT	-0.2029824	Open Circuit (V)
SEQUENCER	TOGGLE	TRUE	Run as Sequence
PSTATMODEL	IQUANT	87	Pstat Model
PSTATSECTION	LABEL	REF620-49029	Pstat Section
PSTATSERIALNO	LABEL	49029	Pstat Serial Number
CTRLMODE	IQUANT	1	Control Mode
ELECTROMETER	IQUANT	0	RE=0 or CS=1
IESTAB	IQUANT	0	I/E Stability
CASPEED	IQUANT	3	Control Amp Speed
CONVENTION	IQUANT	1	Current Convention
ICHRANGE	IQUANT	2	Ich Range
ICHRANGEMODE	TOGGLE	F	Ich Auto Range
ICHOFFSETENABLE	TOGGLE	T	Ich Offset Enable
ICHOFFSET	QUANT	0	Ich Offset (V)
ICHFILTER	IQUANT	3	Ich Filter
VCHRANGE	IQUANT	2	Vch Range
VCHRANGEMODE	TOGGLE	F	Vch Auto Range
VCHOFFSETENABLE	TOGGLE	T	Vch Offset Enable
VCHOFFSET	QUANT	0	Vch Offset (V)
VCHFILTER	IQUANT	3	Vch Filter
ACHRANGE	IQUANT	2	Ach Range
ACHOFFSETENABLE	TOGGLE	F	Ach Offset Enable
ACHOFFSET	QUANT	0	Ach Offset (V)
ACHFILTER	IQUANT	1	Ach Filter
IERANGELOWERLIMIT	IQUANT	1	I/E Range Lower Limit
IERANGEMODE	TOGGLE	F	I/E AutoRange
IERANGE	IQUANT	10	I/E Range
POSFEEDENABLE	TOGGLE	F	Positive Feedback IR Comp
POSFEEDRESISTANCE	QUANT	0	Positive Feedback Resistance (ohm)
ACHSELECT	IQUANT	4	Ach Select
SENSECABLEID	IQUANT	7	Sense Cable ID
PWRCABLEID	IQUANT	7	Power Cable ID
DCCALDATE	LABEL	3/28/2024	DC Calibration Date
ACCALDATE	LABEL	6/22/2023	AC Calibration Date
THERMOSELECT	IQUANT	1	Thermo Select
FRAMEWORKVERSION	LABEL	7.10.3	Framework Version
INSTRUMENTVERSION	LABEL	4.91	Instrument Version
COMMVERSION	LABEL	5.10	Communications Version
CPUPLDVERSION	LABEL	6.00	CPU PLD Version
CTRLPLDVERSION	LABEL	7.10	CTRL PLD Version
PSTATPLDVERSION	LABEL	8.13	PSTAT PLD Version
ZCURVE	TABLE
	Pt	Time	Freq	Zreal	Zimag	Zsig	Zmod	Zphz	Idc	Vdc	IERange	Imod	Vmod	Temp
	#	s	Hz	ohm	ohm	V	ohm	°	A	V	#	A	V	°C
	0	3	100078.1	13.75819	-1.612532	1	13.85237	-6.684866	-0.0002964	-0.2050146	9	0.0007795	0.0108168	-327.67
	1	5	79453.13	14.75224	-0.5303824	1	14.76177	-2.059049	-0.0001763	-0.2069761	9	0.000453	0.0066946	-327.67
	2	7	63140.62	14.42155	-0.6492134	1	14.43615	-2.577538	-0.0002398	-0.2055384	9	0.0004894	0.0070689	-327.67
	3	9	50203.12	12.77655	-1.654293	1	12.8832	-7.377545	-0.0001384	-0.2054207	9	0.0007388	0.009522	-327.67
	4	10	39890.62	14.97633	2.092346	1	15.12178	7.953328	-0.000224	-0.2091118	9	0.0005833	0.0088221	-327.67
	5	11	31640.63	14.46766	-0.8680967	1	14.49368	-3.433777	-0.000256	-0.2011643	9	0.0004188	0.0060709	-327.67
	6	13	25171.88	13.82383	-1.648952	1	13.92183	-6.802289	-0.000196	-0.2064779	9	0.0007019	0.0097726	-327.67
	7	15	20015.62	13.93615	-1.502989	1	14.01696	-6.155455	-0.0002184	-0.2048553	9	0.000481	0.0067431	-327.67
	8	18	15890.62	13.23863	-0.6136854	1	13.25285	-2.654083	-0.000262	-0.2026789	9	0.0007332	0.0097174	-327.67
	9	19	12609.38	14.31234	-0.6873688	1	14.32883	-2.749593	-0.000232	-0.204358	9	0.0007385	0.010582	-327.67
	10	20	10078.13	13.53944	-0.4532332	1	13.54703	-1.917262	-0.0002509	-0.2054259	9	0.0007097	0.0096145	-327.67
	11	22	8015.625	14.86354	-1.683684	1	14.95859	-6.462698	-0.00022	-0.2052711	9	0.0004807	0.0071911	-327.67
	12	23	6328.125	14.14869	-1.068894	1	14.18901	-4.320329	-0.0002333	-0.204776	9	0.0006709	0.0095198	-327.67
	13	25	5015.625	15.02798	-1.575732	1	15.11036	-5.985775	-0.0001103	-0.2035881	9	0.0006972	0.0105345	-327.67
	14	26	3984.375	15.22118	-1.315112	1	15.27788	-4.938101	-0.0002347	-0.2047479	9	0.0004458	0.0068111	-327.67
	15	28	3170.956	14.56408	-1.29384	1	14.62144	-5.076698	-0.0002374	-0.2054443	9	0.0006514	0.0095246	-327.67
	16	29	2527.573	15.00807	-1.961331	1	15.13569	-7.445507	-0.0002377	-0.2052017	9	0.0006495	0.0098301	-327.67
	17	31	1976.103	14.96852	-2.040764	1	15.107	-7.763669	-0.0002128	-0.2036293	9	0.000437	0.0066015	-327.67
	18	32	1577.524	15.86028	-3.477436	1	16.23703	-12.36666	-0.0002131	-0.2052938	9	0.0006607	0.0107274	-327.67
	19	33	1265.625	14.92067	-4.664993	1	15.63293	-17.36201	-0.0002268	-0.2044842	9	0.0004102	0.0064119	-327.67
	20	35	998.264	15.31633	-5.225172	1	16.18309	-18.8371	-0.0002293	-0.2051723	9	0.000635	0.0102765	-327.67
	21	36	796.875	16.33251	-6.159912	1	17.45552	-20.6643	-0.0002427	-0.2051337	9	0.000588	0.0102634	-327.67
	22	38	627.7902	14.61448	-7.709222	1	16.52317	-27.81191	-0.0002108	-0.2048558	9	0.0006039	0.0099777	-327.67
	23	40	505.5147	15.48458	-8.556712	1	17.69151	-28.92485	4.112317E-007	-0.2030228	9	0.0005616	0.0099207	-327.67
	24	42	397.9953	15.70133	-10.61506	1	18.95287	-34.06112	4.128497E-007	-0.2030249	9	0.0005376	0.0101821	-327.67
	25	43	315.5048	15.94354	-13.1286	1	20.65325	-39.46952	4.163016E-007	-0.2030258	9	0.0004878	0.010071	-327.67
	26	45	252.4038	16.21172	-16.13522	1	22.8728	-44.8645	4.506102E-007	-0.2030435	9	0.0004385	0.0100265	-327.67
	27	46	198.6229	16.56449	-20.1685	1	26.09886	-50.60355	4.452772E-007	-0.2030353	9	0.0003838	0.0100143	-327.67
	28	48	158.3615	16.96724	-24.94645	1	30.16973	-55.77856	3.187527E-007	-0.2030301	9	0.0003315	0.0100019	-327.67
	29	49	125.558	17.48086	-31.03768	1	35.62188	-60.61118	1.653711E-008	-0.2030396	8	0.0002796	0.009958	-327.67
	30	51	100.4464	18.10061	-38.3255	1	42.38485	-64.71928	-3.342984E-008	-0.2030284	8	0.0002361	0.0100061	-327.67
	31	52	79.00281	18.93049	-48.1061	1	51.69681	-68.5196	-1.387434E-009	-0.2030296	8	0.0001935	0.0100026	-327.67
	32	54	63.3446	19.92711	-59.29383	1	62.55276	-71.42384	-6.400001E-009	-0.2030364	8	0.0001597	0.0099921	-327.67
	33	55	50.22321	20.87034	-73.90266	1	76.79306	-74.23016	-1.936201E-008	-0.2030334	8	0.0001299	0.009972	-327.67
	34	57	38.42213	23.22546	-95.2724	1	98.0625	-76.29968	2.412463E-008	-0.2030288	8	0.0001012	0.0099195	-327.67
	35	58	31.25	25.34713	-115.8258	1	118.5668	-77.65608	-2.476156E-009	-0.2030306	8	8.305601E-005	0.0098477	-327.67
	36	60	24.93351	28.29128	-143.4256	1	146.1893	-78.84143	-7.249071E-009	-0.2030357	8	6.600824E-005	0.0096497	-327.67
	37	61	19.86229	31.79314	-177.6451	1	180.4676	-79.8532	-1.507551E-007	-0.2030437	8	5.986658E-005	0.010804	-327.67
	38	63	15.625	37.05642	-222.2004	1	225.2691	-80.5319	-2.88675E-008	-0.2030464	8	4.443331E-005	0.0100094	-327.67
	39	64	12.40079	43.93008	-275.9305	1	279.4056	-80.95403	-3.81624E-008	-0.2030419	8	3.574596E-005	0.0099876	-327.67
	40	66	9.93114	52.46975	-339.7448	1	343.7726	-81.22067	-1.788953E-008	-0.2030318	7	2.905454E-005	0.0099881	-327.67
	41	67	7.944915	63.75731	-418.8876	1	423.7119	-81.34565	-4.92127E-008	-0.2030368	7	2.362077E-005	0.0100084	-327.67
	42	69	6.317385	78.71074	-517.3286	1	523.2822	-81.34888	-1.277104E-008	-0.203038	7	1.911264E-005	0.0100013	-327.67
	43	71	5.008013	98.4815	-640.4141	1	647.942	-81.25766	-9.320445E-009	-0.2030325	7	1.544048E-005	0.0100045	-327.67
	44	74	3.945707	124.7092	-796.1009	1	805.8095	-81.09698	-1.184557E-008	-0.2030317	7	1.241304E-005	0.0100025	-327.67
	45	77	3.158693	156.2299	-973.99	1	986.441	-80.88727	-7.351652E-009	-0.203036	7	1.013889E-005	0.0100014	-327.67
	46	80	2.504006	191.6385	-1199.685	1	1214.895	-80.92421	-6.485582E-009	-0.2030221	7	8.049825E-006	0.0097241	-327.67
	47	83	1.998082	243.5358	-1471.415	1	1491.433	-80.6021	-5.862855E-009	-0.2030264	7	6.84481E-006	0.0101753	-327.67
	48	87	1.584686	311.5908	-1811.823	1	1838.421	-80.24194	-3.866692E-009	-0.203024	7	5.490562E-006	0.010075	-327.67
	49	92	1.266892	396.3334	-2213.006	1	2248.216	-79.84638	-1.516629E-009	-0.2030254	7	4.465708E-006	0.0100285	-327.67
	50	98	0.999041	511.8936	-2733.196	1	2780.718	-79.39211	-1.246057E-009	-0.2030293	7	3.602562E-006	0.010011	-327.67
	51	103	0.7923428	660.667	-3354.049	1	3418.498	-78.85677	-3.225406E-009	-0.2030355	6	2.920321E-006	0.009979	-327.67
	52	110	0.6334459	845.5352	-4078.078	1	4164.811	-78.28645	-1.884015E-009	-0.2030334	6	2.397001E-006	0.0099805	-327.67
	53	118	0.5040323	1089.52	-4970.597	1	5088.604	-77.6367	-1.063823E-009	-0.203036	6	1.966719E-006	0.0100062	-327.67
	54	127	0.400641	1405.115	-6050.013	1	6211.039	-76.92486	-5.055814E-010	-0.2030334	6	1.610498E-006	0.0100019	-327.67
	55	139	0.316723	1819.433	-7379.711	1	7600.689	-76.1502	1.783205E-010	-0.2030285	6	1.315946E-006	0.0100015	-327.67
	56	153	0.2520161	2334.913	-8937.028	1	9237.007	-75.35803	2.445883E-010	-0.203029	6	1.083167E-006	0.0100048	-327.67
	57	170	0.2003205	2992.591	-10808.22	1	11214.87	-74.52361	1.115509E-009	-0.2030356	6	8.918392E-007	0.0100016	-327.67
	58	192	0.1588983	3844.987	-13078.81	1	13632.28	-73.6174	2.47109E-010	-0.2030402	6	7.334596E-007	0.0099986	-327.67
	59	217	0.1260081	4953	-15809.76	1	16567.46	-72.60487	-3.608895E-010	-0.2030329	6	6.037345E-007	0.0100022	-327.67
	60	248	0.1001603	6392.194	-19032.16	1	20076.93	-71.43472	-2.184067E-009	-0.2030348	6	4.982264E-007	0.0100028	-327.67
	61	284	0.0794492	8310.446	-22861.94	1	24325.54	-70.02351	-3.765007E-009	-0.2030348	6	4.11176E-007	0.010002	-327.67
	62	323	0.0631739	10788.83	-27160.8	1	29225.13	-68.33601	-1.76794E-009	-0.2030394	6	3.421811E-007	0.0100003	-327.67
	63	373	0.0501337	14316.57	-32362.89	1	35388.14	-66.13654	-3.943514E-009	-0.2030135	5	2.811102E-007	0.009948	-327.67
	64	434	0.0398258	18785.62	-37971.23	1	42364.07	-63.67689	-4.649422E-009	-0.2030128	5	2.367418E-007	0.0100293	-327.67
	65	511	0.0316296	24611.71	-44039.21	1	50449.86	-60.80096	-5.201004E-009	-0.2030129	5	1.982611E-007	0.0100022	-327.67
	66	607	0.0251206	31919.89	-50167.55	1	59461.44	-57.5328	-4.926932E-009	-0.203005	5	1.681824E-007	0.0100004	-327.67
	67	728	0.0199553	40716.07	-55528.91	1	68856.8	-53.74961	-7.310507E-009	-0.2030066	5	1.453073E-007	0.0100054	-327.67
	68	880	0.0158522	51504.95	-60329.89	1	79325	-49.51188	-8.865876E-009	-0.2030129	5	1.260987E-007	0.0100028	-327.67
	69	1134	0.0125907	61500.33	-64636.57	1	89219.83	-46.4243	-1.122613E-008	-0.2030173	5	1.121054E-007	0.010002	-327.67
	70	1374	0.0100011	73014.01	-67274.2	1	99281.7	-42.65709	-1.143999E-008	-0.2030188	5	1.007309E-007	0.0100007	-327.67
