EXPLAIN
TAG	EISPOT
TITLE	LABEL	Potentiostatic EIS	Test Identifier
DATE	LABEL	2024/12/18	Date
TIME	LABEL	16:10:26	Time
NOTES	NOTES	1	Notes...
	
PSTAT	PSTAT	REF620-49045	Potentiostat
VDC	POTEN	0.00000E+000	T	DC Voltage (V)
FREQINIT	QUANT	1.00000E+005	Initial Freq. (Hz)
FREQFINAL	QUANT	1.00000E-002	Final Freq. (Hz)
PTSPERDEC	QUANT	1.00000E+001	Points/decade
VAC	QUANT	1.00000E+001	AC Voltage (mV rms)
AREA	QUANT	1.00000E+000	Sample Area (cm^2)
SPEED	SELECTOR	1	Optimize for:
DRIFTCOR	SELECTOR	0	Drift Correction
THD	SELECTOR	0	THD
ZGUESS	QUANT	1.00000E+002	Estimated Z (ohms)
EOC	QUANT	-0.2368153	Open Circuit (V)
SEQUENCER	TOGGLE	TRUE	Run as Sequence
PSTATMODEL	IQUANT	87	Pstat Model
PSTATSECTION	LABEL	REF620-49045	Pstat Section
PSTATSERIALNO	LABEL	49045	Pstat Serial Number
CTRLMODE	IQUANT	1	Control Mode
ELECTROMETER	IQUANT	0	RE=0 or CS=1
IESTAB	IQUANT	0	I/E Stability
CASPEED	IQUANT	3	Control Amp Speed
CONVENTION	IQUANT	1	Current Convention
ICHRANGE	IQUANT	2	Ich Range
ICHRANGEMODE	TOGGLE	F	Ich Auto Range
ICHOFFSETENABLE	TOGGLE	T	Ich Offset Enable
ICHOFFSET	QUANT	0	Ich Offset (V)
ICHFILTER	IQUANT	3	Ich Filter
VCHRANGE	IQUANT	2	Vch Range
VCHRANGEMODE	TOGGLE	F	Vch Auto Range
VCHOFFSETENABLE	TOGGLE	T	Vch Offset Enable
VCHOFFSET	QUANT	0	Vch Offset (V)
VCHFILTER	IQUANT	3	Vch Filter
ACHRANGE	IQUANT	2	Ach Range
ACHOFFSETENABLE	TOGGLE	F	Ach Offset Enable
ACHOFFSET	QUANT	0	Ach Offset (V)
ACHFILTER	IQUANT	1	Ach Filter
IERANGELOWERLIMIT	IQUANT	1	I/E Range Lower Limit
IERANGEMODE	TOGGLE	F	I/E AutoRange
IERANGE	IQUANT	10	I/E Range
POSFEEDENABLE	TOGGLE	F	Positive Feedback IR Comp
POSFEEDRESISTANCE	QUANT	0	Positive Feedback Resistance (ohm)
ACHSELECT	IQUANT	4	Ach Select
SENSECABLEID	IQUANT	7	Sense Cable ID
PWRCABLEID	IQUANT	7	Power Cable ID
DCCALDATE	LABEL	4/1/2024	DC Calibration Date
ACCALDATE	LABEL	10/11/2023	AC Calibration Date
THERMOSELECT	IQUANT	1	Thermo Select
FRAMEWORKVERSION	LABEL	7.10.3	Framework Version
INSTRUMENTVERSION	LABEL	4.91	Instrument Version
COMMVERSION	LABEL	5.10	Communications Version
CPUPLDVERSION	LABEL	6.00	CPU PLD Version
CTRLPLDVERSION	LABEL	7.10	CTRL PLD Version
PSTATPLDVERSION	LABEL	8.13	PSTAT PLD Version
ZCURVE	TABLE
	Pt	Time	Freq	Zreal	Zimag	Zsig	Zmod	Zphz	Idc	Vdc	IERange	Imod	Vmod	Temp
	#	s	Hz	ohm	ohm	V	ohm	°	A	V	#	A	V	°C
	0	4	100078.1	12.26504	-0.1484889	1	12.26594	-0.6936276	-4.914474E-006	-0.2363324	9	0.0008189	0.0100129	-327.67
	1	5	79453.13	12.27121	-0.1619103	1	12.27228	-0.7559353	-5.139756E-006	-0.2363303	9	0.0009587	0.0117401	-327.67
	2	6	63140.62	12.27451	-0.1797413	1	12.27583	-0.8389482	-4.780361E-006	-0.2363232	9	0.0009209	0.0112889	-327.67
	3	8	50203.12	12.27821	-0.2068364	1	12.27995	-0.965103	-5.012411E-006	-0.2363352	9	0.0008935	0.0109626	-327.67
	4	9	39890.62	12.2936	-0.2406675	1	12.29596	-1.121516	-4.945585E-006	-0.2363258	9	0.0008691	0.0106807	-327.67
	5	11	31640.63	12.30711	-0.2808469	1	12.31031	-1.307256	-4.942331E-006	-0.2363316	9	0.0008483	0.0104394	-327.67
	6	12	25171.88	12.32187	-0.3337053	1	12.32638	-1.551326	-5.050821E-006	-0.2363263	9	0.0008364	0.0103077	-327.67
	7	14	20015.62	12.34133	-0.395015	1	12.34765	-1.833268	-4.92766E-006	-0.2363334	9	0.0008262	0.0102004	-327.67
	8	15	15890.62	12.36294	-0.478843	1	12.37221	-2.218079	-4.930287E-006	-0.236331	9	0.0008185	0.0101263	-327.67
	9	17	12609.38	12.38979	-0.5742202	1	12.40309	-2.653544	-4.97838E-006	-0.2363297	9	0.000813	0.0100833	-327.67
	10	18	10078.13	12.42177	-0.6826148	1	12.44052	-3.145416	-4.922268E-006	-0.2363223	9	0.000808	0.0100519	-327.67
	11	20	8015.625	12.45117	-0.8245183	1	12.47845	-3.788602	-4.983886E-006	-0.236331	9	0.0008037	0.0100284	-327.67
	12	21	6328.125	12.51256	-1.008814	1	12.55316	-4.609453	-4.62847E-006	-0.2363312	9	0.0007997	0.0100382	-327.67
	13	23	5015.625	12.53347	-1.209353	1	12.59168	-5.511403	-4.769116E-006	-0.2363383	9	0.0007933	0.009989	-327.67
	14	24	3984.375	12.59151	-1.469121	1	12.67693	-6.654926	-4.676483E-006	-0.2363321	9	0.0007902	0.0100174	-327.67
	15	26	3170.956	12.6494	-1.783104	1	12.77446	-8.023751	-4.753266E-006	-0.2363355	9	0.000783	0.0100019	-327.67
	16	27	2527.573	12.70946	-2.168185	1	12.89308	-9.68124	-4.426128E-006	-0.2363256	9	0.0007756	0.0099994	-327.67
	17	29	1976.103	12.80256	-2.687425	1	13.08159	-11.85501	-4.822011E-006	-0.2363313	9	0.0007652	0.0100102	-327.67
	18	30	1577.524	12.87452	-3.26383	1	13.28179	-14.22541	-4.692813E-006	-0.2363361	9	0.0007524	0.0099935	-327.67
	19	32	1265.625	12.95466	-3.97271	1	13.55012	-17.04882	-4.757069E-006	-0.2363295	9	0.000738	0.0099994	-327.67
	20	33	998.264	13.07658	-4.921034	1	13.97188	-20.62254	-4.590222E-006	-0.2363385	9	0.0007163	0.0100081	-327.67
	21	35	796.875	13.19724	-6.031733	1	14.51031	-24.56253	-4.852559E-006	-0.2363459	9	0.0006897	0.0100084	-327.67
	22	36	627.7902	13.31427	-7.504544	1	15.28359	-29.40763	-4.480189E-006	-0.2363344	9	0.0006539	0.0099938	-327.67
	23	37	505.5147	13.44505	-9.173114	1	16.27622	-34.30443	1.287008E-007	-0.2362942	9	0.0005959	0.0097172	-327.67
	24	39	397.9953	13.61393	-11.47365	1	17.80404	-40.12377	1.10334E-007	-0.2362807	9	0.000571	0.0101781	-327.67
	25	40	315.5048	13.80587	-14.28261	1	19.86442	-45.97239	1.051067E-007	-0.2362884	9	0.0005065	0.010068	-327.67
	26	42	252.4038	14.02598	-17.64716	1	22.54219	-51.52229	1.030442E-007	-0.2362892	9	0.0004446	0.0100259	-327.67
	27	43	198.6229	14.31409	-22.16922	1	26.38878	-57.15073	1.043918E-007	-0.236296	9	0.0003792	0.0100094	-327.67
	28	45	158.3615	14.64747	-27.5241	1	31.17891	-61.97948	6.460771E-007	-0.2362872	9	0.0003208	0.0100044	-327.67
	29	46	125.558	15.07068	-34.34473	1	37.50581	-66.30783	3.048081E-008	-0.2362831	8	0.0002658	0.0099692	-327.67
	30	48	100.4464	15.56844	-42.50919	1	45.27038	-69.88539	-3.995865E-009	-0.2362837	8	0.000221	0.0100056	-327.67
	31	49	79.00281	16.25615	-53.54703	1	55.96023	-73.11242	2.962165E-008	-0.2362771	8	0.0001786	0.0099937	-327.67
	32	51	63.3446	17.05871	-66.21389	1	68.37601	-75.55303	2.726131E-008	-0.2362761	8	0.0001462	0.0099961	-327.67
	33	52	50.22321	18.17025	-82.76475	1	84.73583	-77.61768	3.761284E-008	-0.2362655	8	0.0001177	0.0099703	-327.67
	34	54	38.42213	19.75406	-107.1168	1	108.9231	-79.55113	1.466805E-008	-0.2362757	8	9.107006E-005	0.0099197	-327.67
	35	55	31.25	21.3598	-130.6972	1	132.4311	-80.71823	5.018535E-009	-0.2362713	8	7.430484E-005	0.0098403	-327.67
	36	57	24.93351	23.61212	-162.3717	1	164.0796	-81.72604	2.741135E-008	-0.2362736	8	5.871515E-005	0.009634	-327.67
	37	58	19.86229	26.42902	-201.508	1	203.2338	-82.52795	-4.177184E-008	-0.2362977	8	5.345449E-005	0.0108638	-327.67
	38	60	15.625	30.54514	-253.9312	1	255.7617	-83.1409	-2.441777E-008	-0.2362894	8	3.911185E-005	0.0100033	-327.67
	39	61	12.40079	35.63627	-316.5959	1	318.5952	-83.57777	3.137652E-008	-0.2362817	8	3.136755E-005	0.0099936	-327.67
	40	63	9.93114	42.34204	-392.4276	1	394.7053	-83.84174	-9.198033E-009	-0.2362989	7	2.532392E-005	0.0099955	-327.67
	41	64	7.944915	50.89273	-485.3425	1	488.0035	-84.01388	-2.058684E-009	-0.2362984	7	2.046578E-005	0.0099874	-327.67
	42	66	6.317385	62.55507	-604.1146	1	607.3447	-84.08819	1.410172E-009	-0.2362956	7	1.647113E-005	0.0100037	-327.67
	43	68	5.008013	78.15393	-753.426	1	757.4687	-84.07781	-5.509548E-011	-0.2363011	7	1.319925E-005	0.009998	-327.67
	44	70	3.945707	99.5684	-944.1919	1	949.4273	-83.9802	-3.470291E-011	-0.2363016	7	1.053337E-005	0.0100007	-327.67
	45	73	3.158693	126.1628	-1164.875	1	1171.688	-83.81863	9.314292E-010	-0.236299	7	8.534112E-006	0.0099993	-327.67
	46	76	2.504006	163.3555	-1450.386	1	1459.557	-83.57392	1.197481E-009	-0.2363002	7	6.65275E-006	0.0097513	-327.67
	47	79	1.998082	210.8308	-1791.375	1	1803.738	-83.28761	2.909712E-009	-0.2363008	7	5.617263E-006	0.0101577	-327.67
	48	83	1.584686	275.9497	-2223.581	1	2240.638	-82.92567	2.413671E-009	-0.2362974	7	4.48573E-006	0.010066	-327.67
	49	88	1.266892	359.8943	-2736.834	1	2760.396	-82.50858	4.440352E-009	-0.2362993	7	3.627273E-006	0.0100219	-327.67
	50	94	0.999041	479.3394	-3407.626	1	3441.175	-81.99293	3.872032E-009	-0.2362976	6	2.901661E-006	0.0099907	-327.67
	51	99	0.7923428	636.5321	-4214.641	1	4262.438	-81.4116	4.111357E-009	-0.236297	6	2.346143E-006	0.0100037	-327.67
	52	106	0.6334459	841.3524	-5168.607	1	5236.638	-80.75442	3.876403E-009	-0.2362978	6	1.90997E-006	0.010004	-327.67
	53	114	0.5040323	1121.249	-6353.686	1	6451.862	-79.99193	4.211207E-009	-0.2362999	6	1.549952E-006	0.0100014	-327.67
	54	123	0.400641	1504.554	-7805.973	1	7949.647	-79.09037	3.915408E-009	-0.2362969	6	1.257931E-006	0.010001	-327.67
	55	135	0.316723	2040.99	-9614.55	1	9828.79	-78.01508	3.446969E-009	-0.2362958	6	1.017547E-006	0.0100018	-327.67
	56	149	0.2520161	2755.294	-11739.7	1	12058.7	-76.7918	3.239792E-009	-0.2362963	6	8.293516E-007	0.0100012	-327.67
	57	166	0.2003205	3743.845	-14305.11	1	14786.9	-75.33384	2.345672E-009	-0.236297	6	6.762944E-007	0.0100005	-327.67
	58	188	0.1588983	5118.511	-17376.95	1	18115.12	-73.58727	1.000623E-009	-0.2362963	6	5.519672E-007	0.0099991	-327.67
	59	213	0.1260081	7001.41	-20977.88	1	22115.4	-71.54346	-1.323649E-009	-0.236296	6	4.522807E-007	0.0100025	-327.67
	60	243	0.1001603	9526.36	-25071.11	1	26820	-69.19453	-4.86663E-009	-0.2362934	6	3.728564E-007	0.0100001	-327.67
	61	280	0.0794492	12956.64	-29690.66	1	32394.6	-66.42413	-8.02903E-009	-0.2363002	6	3.087338E-007	0.0100013	-327.67
	62	319	0.0631739	17535.73	-34584.03	1	38775.72	-63.11285	-9.745665E-009	-0.2362899	5	2.565334E-007	0.0099473	-327.67
	63	368	0.0501337	23415.92	-39611.67	1	46015.11	-59.4111	-1.130338E-008	-0.2362872	5	2.176647E-007	0.0100159	-327.67
	64	430	0.0398258	30626.96	-44340.74	1	53889.81	-55.36646	-1.225948E-008	-0.2362847	5	1.856096E-007	0.0100025	-327.67
	65	506	0.0316296	39178.79	-48298.99	1	62191.4	-50.952	-1.197494E-008	-0.2362845	5	1.608355E-007	0.0100026	-327.67
	66	603	0.0251206	48588.07	-51129.84	1	70534.11	-46.46013	-1.304984E-008	-0.2362828	5	1.418028E-007	0.0100019	-327.67
	67	764	0.0199553	58409.21	-52802.56	1	78738.47	-42.11393	-1.365918E-008	-0.2362826	5	1.270168E-007	0.0100011	-327.67
	68	966	0.0158522	67986.36	-52869.07	1	86123.66	-37.87015	-1.291389E-008	-0.2362835	5	1.161313E-007	0.0100017	-327.67
	69	1220	0.0125907	76934.32	-52451.05	1	93112.84	-34.28476	-1.556103E-008	-0.2362857	5	1.074147E-007	0.0100017	-327.67
	70	1539	0.0100011	85049.7	-51543.47	1	99449.4	-31.21751	-2.034174E-008	-0.2362812	5	1.005652E-007	0.0100011	-327.67
